Time [s],Packet ID,MOSI,MISO
5.259849833333333,0,0x00,0x12
5.259855083333333,1,0x80,0x00
5.259860333333333,2,0xA0,0x00
5.259866083333334,3,0x86,0x00
5.259871333333333,4,0x92,0x00
5.259876666666667,5,0xD0,0x00
5.259881916666667,6,0xB6,0x00
5.259887166666666,7,0xC7,0x00
5.259892666666667,8,0xC4,0x00
5.259898083333334,9,0xB3,0x00
5.259903583333333,10,0xA8,0x00
5.259909083333334,11,0xA0,0x00
5.259914333333334,12,0xB2,0x00
5.259919583333334,13,0xC0,0x00
5.259924833333334,14,0xC0,0x00
5.259930083333333,15,0xC0,0x00
5.259939333333334,16,0xCC,0x00
5.259945000000000,17,0xA5,0x00
9.282097500000001,18,0xA5,0x00
9.282102666666667,19,0x80,0x00
11.652821250000001,20,0x00,0x8F
11.652827500000001,21,0xB0,0xFF
11.652832750000000,21,0x00,0x05
11.652983250000000,22,0x00,0x1F
11.652989333333334,23,0xB0,0xFF
11.652994583333333,23,0x00,0x02
11.653144916666667,24,0x00,0x88
11.653151083333332,25,0xB0,0xFF
11.653156333333333,25,0x00,0x03
11.653307916666666,26,0x00,0x8C
11.653314166666666,27,0xB0,0xFF
11.653319416666667,27,0x00,0x40
11.653471083333333,28,0x00,0x8F
11.653477250000000,29,0xB0,0xFF
11.653482500000001,29,0x00,0x99
11.653633666666666,30,0x00,0x1F
11.653639750000000,31,0xB0,0xFF
11.653644999999999,31,0x00,0x18
11.653795916666667,32,0x00,0x8E
11.653802083333334,33,0xB0,0xFF
11.653807333333333,33,0x00,0x7E
11.653956916666667,34,0x00,0x8B
11.653963083333334,35,0xB0,0xFF
11.653968416666666,35,0x00,0x78
11.653978750000000,36,0x92,0x00
11.654032000000001,37,0xA5,0x00
11.654037166666667,38,0x80,0x00
11.654046916666667,39,0xC2,0x00
11.654052166666666,40,0x80,0x00
11.654064666666667,41,0x97,0x00
11.654460666666667,42,0x00,0x80
11.654467583333334,43,0xEF,0xFF
11.654623000000001,44,0x00,0x88
11.654629916666666,45,0xA7,0xFF
11.654785416666666,46,0x00,0x80
11.654792333333333,47,0xEF,0xFF
11.654947833333333,48,0x00,0x8C
11.654954833333333,49,0xE3,0xFE
11.655110333333333,50,0x00,0x18
11.655117833333334,51,0x41,0xFF
11.655272583333334,52,0x00,0x8C
11.655281666666667,53,0xE1,0xFF
11.655435083333334,54,0x00,0x80
11.655444166666667,55,0xE1,0xFE
11.655597416666666,56,0x00,0x88
11.655606499999999,57,0xE0,0xFE
11.655760000000001,58,0x00,0x18
11.655769083333333,59,0x48,0xFF
11.655922416666666,60,0x00,0x18
11.655929666666667,61,0x4D,0xFF
11.656084750000000,62,0x00,0x18
11.656091916666666,63,0xA5,0xFF
11.656247000000000,64,0x00,0x8C
11.656253916666667,65,0xEF,0xFF
11.656409500000001,66,0x00,0x88
11.656416083333333,67,0x93,0xFF
11.656421416666667,68,0xA7,0xFF
11.656839916666666,69,0xA5,0x00
11.656845083333334,70,0x80,0x00
20.984745166666666,71,0x00,0x8D
20.984751416666668,72,0xB0,0xFF
20.984756666666666,72,0x00,0x05
20.984907000000000,73,0x00,0x8E
20.984913250000002,74,0xB0,0xFF
20.984918499999999,74,0x00,0x02
20.985070166666667,75,0x00,0x8C
20.985076416666665,76,0xB0,0xFF
20.985081666666666,76,0x00,0x03
20.985231833333334,77,0x00,0x88
20.985237999999999,78,0xB0,0xFF
20.985243250000000,78,0x00,0x40
20.985394249999999,79,0x00,0x88
20.985400416666668,80,0xB0,0xFF
20.985405666666665,80,0x00,0x99
20.985557583333332,81,0x00,0x1F
20.985563666666668,82,0xB0,0xFF
20.985568916666665,82,0x00,0x18
20.985719000000000,83,0x00,0x8F
20.985725166666668,84,0xB0,0xFF
20.985730416666666,84,0x00,0x7E
20.985881583333335,85,0x00,0x1F
20.985887666666667,86,0xB0,0xFF
20.985892916666668,86,0x00,0x78
20.985903250000000,87,0x80,0x00
20.985956500000000,88,0xC2,0x00
20.985961833333334,89,0x01,0x00
20.985971500000002,90,0xA4,0x00
20.985976749999999,91,0x93,0x00
20.985989166666666,92,0x96,0x00
20.986400583333332,93,0x00,0x80
20.986407499999999,94,0xE7,0xFF
20.986563000000000,95,0x00,0x80
20.986569916666667,96,0xEF,0xFF
20.986725499999999,97,0x00,0x18
20.986732333333332,98,0xE0,0xFE
20.986887833333334,99,0x00,0x18
20.986894666666668,100,0xE6,0xFF
20.987050249999999,101,0x00,0x18
20.987057750000002,102,0x41,0xFF
20.987212499999998,103,0x00,0x8C
20.987221583333334,104,0xA0,0xFF
20.987374916666667,105,0x00,0x8C
20.987383999999999,106,0xE1,0xFF
20.987537333333332,107,0x00,0x88
20.987546416666667,108,0xE0,0xFE
20.987699750000001,109,0x00,0x80
20.987708833333333,110,0xE0,0xFE
20.987862166666666,111,0x00,0x80
20.987869416666666,112,0xEA,0xFE
20.988024666666668,113,0x00,0x18
20.988031833333334,114,0xA4,0xFF
20.988186916666667,115,0x00,0x8C
20.988193833333334,116,0xEF,0xFF
20.988349333333332,117,0x00,0x8C
20.988355916666666,118,0x92,0xFF
20.988361416666667,119,0x48,0xFF
20.990953000000001,120,0x82,0x00
20.990958083333332,121,0x91,0x00
39.555782499999999,122,0x00,0x1F
39.555788583333332,123,0xB0,0xFF
39.555793833333333,123,0x00,0x05
39.555945583333333,124,0x00,0x8D
39.555951833333332,125,0xB0,0xFF
39.555957083333332,125,0x00,0x02
39.556108000000002,126,0x00,0x8C
39.556114166666667,127,0xB0,0xFF
39.556119416666668,127,0x00,0x03
39.556269583333332,128,0x00,0x88
39.556275833333331,129,0xB0,0xFF
39.556281083333332,129,0x00,0x40
39.556432000000001,130,0x00,0x8C
39.556438166666666,131,0xB0,0xFF
39.556443416666667,131,0x00,0x99
39.556594416666670,132,0x00,0x8F
39.556600583333335,133,0xB0,0xFF
39.556605833333336,133,0x00,0x18
39.556757583333336,134,0x00,0x8F
39.556763833333335,135,0xB0,0xFF
39.556769083333336,135,0x00,0x7E
39.556919999999998,136,0x00,0x8F
39.556926249999997,137,0xB0,0xFF
39.556931499999997,137,0x00,0x78
39.556941833333333,138,0x81,0x00
39.556995083333334,139,0xA5,0x00
39.557000416666668,140,0x01,0x00
39.557010166666664,141,0x82,0x00
39.557015416666665,142,0x01,0x00
39.557027750000003,143,0x96,0x00
39.557423749999998,144,0x00,0x8C
39.557430666666669,145,0xA7,0xFF
39.557586083333334,146,0x00,0x8C
39.557593166666663,147,0x48,0xFF
39.557748500000002,148,0x00,0x8C
39.557755416666666,149,0xA7,0xFF
39.557910916666664,150,0x00,0x80
39.557917833333335,151,0xE6,0xFF
39.558073333333333,152,0x00,0x8C
39.558081000000001,153,0x41,0xFF
39.558235750000001,154,0x00,0x8E
39.558244833333333,155,0xE1,0xFF
39.558398083333330,156,0x00,0x8E
39.558407166666669,157,0xA0,0xFF
39.558560583333332,158,0x00,0x8C
39.558569666666664,159,0xE0,0xFE
39.558722916666667,160,0x00,0x8C
39.558731999999999,161,0xE8,0xFF
39.558885500000002,162,0x00,0x18
39.558892666666665,163,0xEA,0xFE
39.559047749999998,164,0x00,0x80
39.559055166666667,165,0x48,0xFF
39.559210250000000,166,0x00,0x18
39.559216999999997,167,0xEF,0xFF
39.559372583333335,168,0x00,0x8E
39.559379166666666,169,0x92,0xFF
39.559384666666666,170,0x48,0xFF
39.561975916666668,171,0xC2,0x00
39.561981250000002,172,0x01,0x00
41.895522999999997,173,0x00,0x1F
41.895529083333336,174,0xB0,0xFF
41.895534333333330,174,0x00,0x05
41.895685333333333,175,0x00,0x8C
41.895691583333331,176,0xB0,0xFF
41.895696833333332,176,0x00,0x02
41.895848583333333,177,0x00,0x89
41.895854749999998,178,0xB0,0xFF
41.895859999999999,178,0x00,0x03
41.896011666666666,179,0x00,0x1F
41.896017749999999,180,0xB0,0xFF
41.896023000000000,180,0x00,0x40
41.896172583333332,181,0x00,0x88
41.896178749999997,182,0xB0,0xFF
41.896183999999998,182,0x00,0x99
41.896335083333334,183,0x00,0x1F
41.896341166666666,184,0xB0,0xFF
41.896346416666667,184,0x00,0x18
41.896498166666667,185,0x00,0x8D
41.896504416666666,186,0xB0,0xFF
41.896509666666667,186,0x00,0x7E
41.896660583333336,187,0x00,0x8F
41.896666750000001,188,0xB0,0xFF
41.896672083333335,188,0x00,0x78
41.896682416666664,189,0x92,0x00
41.896739416666669,190,0x82,0x00
41.896744499999997,191,0x92,0x00
41.896754250000001,192,0xA5,0x00
41.896759500000002,193,0x92,0x00
41.896771916666665,194,0x83,0x00
41.897177666666664,195,0x00,0x80
41.897184583333335,196,0xEF,0xFF
41.897340166666666,197,0x00,0x18
41.897347000000003,198,0xE0,0xFE
41.897502500000002,199,0x00,0x18
41.897509333333332,200,0xEF,0xFF
41.897664833333330,201,0x00,0x8E
41.897671916666667,202,0x41,0xFF
41.897827249999999,203,0x00,0x18
41.897834666666668,204,0xE2,0xFE
41.897989666666668,205,0x00,0x18
41.897998583333333,206,0xA0,0xFF
41.898152000000003,207,0x00,0x8C
41.898161083333335,208,0xE1,0xFE
41.898314333333332,209,0x00,0x8C
41.898323416666663,210,0xE1,0xFF
41.898476833333334,211,0x00,0x80
41.898485999999998,212,0x48,0xFF
41.898639166666669,213,0x00,0x80
41.898646416666665,214,0xE8,0xFF
41.898801583333331,215,0x00,0x80
41.898809000000000,216,0x48,0xFF
41.898964083333333,217,0x00,0x18
41.898970833333337,218,0xEF,0xFF
41.899126333333335,219,0x00,0x8E
41.899132916666666,220,0x81,0xFF
41.899138333333333,221,0xE0,0xFE
41.899172333333333,222,0xA5,0x00
41.899177666666667,223,0x01,0x00
43.315707333333336,224,0x00,0x8B
43.315713500000001,225,0xB0,0xFF
43.315718833333335,225,0x00,0x05
43.315869749999997,226,0x00,0x8F
43.315875916666670,227,0xB0,0xFF
43.315881166666664,227,0x00,0x02
43.316032916666664,228,0x00,0x8F
43.316039083333337,229,0xB0,0xFF
43.316044333333330,229,0x00,0x03
43.316194666666668,230,0x00,0x1C
43.316200750000000,231,0xB0,0xFF
43.316206000000001,231,0x00,0x40
43.316357083333337,232,0x00,0x1F
43.316363166666669,233,0xB0,0xFF
43.316368416666670,233,0x00,0x99
43.316520083333330,234,0x00,0x8D
43.316526333333336,235,0xB0,0xFF
43.316531583333337,235,0x00,0x18
43.316681500000001,236,0x00,0x8F
43.316687750000000,237,0xB0,0xFF
43.316693000000001,237,0x00,0x7E
43.316844916666668,238,0x00,0x8B
43.316851083333333,239,0xB0,0xFF
43.316856333333334,239,0x00,0x78
43.316866750000003,240,0x92,0x00
43.316919833333330,241,0xC2,0x00
43.316925083333331,242,0x92,0x00
43.316934833333335,243,0xA4,0x00
43.316940083333336,244,0x93,0x00
43.316952499999999,245,0x83,0x00
43.317349333333333,246,0x00,0x88
43.317356250000003,247,0xA7,0xFF
43.317511750000001,248,0x00,0x80
43.317518666666665,249,0xA7,0xFF
43.317674333333336,250,0x00,0x18
43.317681166666667,251,0xE0,0xFE
43.317836666666665,252,0x00,0x18
43.317843500000002,253,0xE3,0xFE
43.317999000000000,254,0x00,0x88
43.318006500000003,255,0xA1,0xFF
43.318161333333336,256,0x00,0x8C
43.318170416666668,257,0xE1,0xFF
43.318323749999998,258,0x00,0x88
43.318332833333336,259,0xE1,0xFF
43.318486166666666,260,0x00,0x88
43.318495249999998,261,0xE0,0xFE
43.318648583333335,262,0x00,0x80
43.318657750000000,263,0x48,0xFF
43.318811083333337,264,0x00,0x18
43.318818250000000,265,0xEA,0xFE
43.318973416666665,266,0x00,0x8C
43.318980750000001,267,0xEA,0xFF
43.319157166666663,268,0x00,0x88
43.319164166666667,269,0x48,0xFF
43.319298250000003,270,0x00,0x88
43.319304833333334,271,0x93,0xFF
43.319310166666668,272,0xA7,0xFF
43.319344166666667,273,0x82,0x00
43.319349250000002,274,0x92,0x00
44.747994833333337,275,0x00,0xC8
44.748001083333335,276,0xB0,0xFF
44.748006333333336,276,0x00,0x05
44.748023250000003,277,0x00,0x1C
44.748029333333335,278,0xB0,0xFF
44.748034583333336,278,0x00,0x02
44.798902833333337,279,0x00,0x1F
44.798908916666669,280,0xB0,0xFF
44.798914166666670,280,0x00,0x05
44.799065083333332,281,0x00,0x8E
44.799071333333330,282,0xB0,0xFF
44.799076583333331,282,0x00,0x02
44.799228166666666,283,0x00,0x88
44.799234333333331,284,0xB0,0xFF
44.799239583333332,284,0x00,0x03
44.799389083333331,285,0x00,0x8D
44.799395333333337,286,0xB0,0xFF
44.799400583333330,286,0x00,0x40
44.799552333333331,287,0x00,0x88
44.799558500000003,288,0xB0,0xFF
44.799563749999997,288,0x00,0x99
44.799715333333332,289,0x00,0x8D
44.799721583333330,290,0xB0,0xFF
44.799726833333331,290,0x00,0x18
44.799737166666667,291,0x81,0x00
44.799788749999998,292,0xA5,0x00
44.799793916666665,293,0x91,0x00
44.799877666666667,294,0x00,0x8F
44.799883916666666,295,0xB0,0xFF
44.799889166666667,295,0x00,0x7E
44.800040083333336,296,0x00,0x8D
44.800046333333334,297,0xB0,0xFF
44.800051583333335,297,0x00,0x78
44.800202499999997,298,0x00,0x8A
44.800208666666670,299,0xB0,0xFF
44.800213916666664,299,0x00,0xA0
44.800364333333334,300,0x00,0x8E
44.800370583333333,301,0xB0,0xFF
44.800375833333334,301,0x00,0xFF
44.800525916666665,302,0x00,0x8A
44.800532166666663,303,0xB0,0xFF
44.800537416666664,303,0x00,0xFA
44.800686333333331,304,0x00,0x84
44.800692499999997,305,0xB0,0xFF
44.800697749999998,305,0x00,0x83
44.800850750000002,306,0x00,0x84
44.800856916666667,307,0xB0,0xFF
44.800862166666668,307,0x00,0xB3
44.801015333333332,308,0x00,0x84
44.801021499999997,309,0xB0,0xFF
44.801026749999998,309,0x00,0xF5
44.801177750000001,310,0x00,0x80
44.801183916666666,311,0xB0,0xFF
44.801189166666667,311,0x00,0x02
44.801335916666666,312,0x00,0x88
44.801342166666664,313,0xB0,0xFF
44.801347416666665,313,0x00,0xE6
44.801500333333337,314,0x00,0x82
44.801506583333335,315,0xB0,0xFF
44.801511833333336,315,0x00,0x93
44.801656583333333,316,0x00,0x80
44.801662749999998,317,0xB0,0xFF
44.801667999999999,317,0x00,0xA7
44.801816750000000,318,0x00,0x86
44.801822999999999,319,0xB0,0xFF
44.801828250000000,319,0x00,0xC7
44.801983499999999,320,0x00,0x08
44.801989583333331,321,0xB0,0xFF
44.801994833333332,321,0x00,0x63
44.802141583333331,322,0x00,0x84
44.802147750000003,323,0xB0,0xFF
44.802153083333330,323,0x00,0xBF
44.802163666666665,324,0x92,0x00
44.802177000000000,325,0x82,0x00
44.802182083333335,326,0x92,0x00
44.802322833333335,327,0x00,0x80
44.802329000000000,328,0xB0,0xFF
44.802334250000001,328,0x00,0x87
44.802466416666668,329,0x00,0x80
44.802472583333333,330,0xB0,0xFF
44.802477833333334,330,0x00,0x9C
44.802622666666664,331,0x00,0x08
44.802628749999997,332,0xB0,0xFF
44.802633999999998,332,0x00,0x10
44.802780749999997,333,0x00,0x84
44.802786916666669,334,0xB0,0xFF
44.802792250000003,334,0x00,0x7E
44.802949333333331,335,0x00,0x82
44.802955583333336,336,0xB0,0xFF
44.802960833333330,336,0x00,0x34
44.803109749999997,337,0x00,0x84
44.803115916666670,338,0xB0,0xFF
44.803121249999997,338,0x00,0x76
44.803270083333331,339,0x00,0x00
44.803276166666670,340,0xB0,0xFF
44.803281416666664,340,0x00,0x5D
44.803432500000000,341,0x00,0x00
44.803438583333332,342,0xB0,0xFF
44.803443833333333,342,0x00,0x5E
44.803587333333333,343,0x00,0x04
44.803593416666665,344,0xB0,0xFF
44.803598666666666,344,0x00,0x2A
44.803748166666665,345,0x00,0x84
44.803754333333330,346,0xB0,0xFF
44.803759666666664,346,0x00,0x7E
44.803910583333334,347,0x00,0x84
44.803916749999999,348,0xB0,0xFF
44.803922000000000,348,0x00,0x62
44.804079166666668,349,0x00,0x84
44.804085416666666,350,0xB0,0xFF
44.804090666666667,350,0x00,0xA4
44.804239583333334,351,0x00,0x8C
44.804245750000000,352,0xB0,0xFF
44.804251000000001,352,0x00,0xA8
44.804408166666668,353,0x00,0x8C
44.804414416666667,354,0xB0,0xFF
44.804419666666668,354,0x00,0x93
44.804562166666663,355,0x00,0x82
44.804568416666669,356,0xB0,0xFF
44.804573666666670,356,0x00,0x1B
44.804584249999998,357,0x81,0x00
44.804597500000000,358,0xA5,0x00
44.804602666666668,359,0x91,0x00
44.804718416666667,360,0x00,0x80
44.804724583333332,361,0xB0,0xFF
44.804729833333333,361,0x00,0x97
44.804880833333335,362,0x00,0x80
44.804887000000001,363,0xB0,0xFF
44.804892250000002,363,0x00,0xBF
44.805039000000001,364,0x00,0x82
44.805045249999999,365,0xB0,0xFF
44.805050500000000,365,0x00,0xD2
44.805194999999998,366,0x00,0x80
44.805201166666670,367,0xB0,0xFF
44.805206416666664,367,0x00,0x20
44.805355499999997,368,0x00,0x00
44.805361583333337,369,0xB0,0xFF
44.805366833333331,369,0x00,0x81
44.805509416666666,370,0x00,0x80
44.805515583333332,371,0xB0,0xFF
44.805520833333333,371,0x00,0x3B
44.805673833333330,372,0x00,0x80
44.805680000000002,373,0xB0,0xFF
44.805685250000003,373,0x00,0x4D
44.805827833333332,374,0x00,0x84
44.805833999999997,375,0xB0,0xFF
44.805839249999998,375,0x00,0x7D
44.805984166666669,376,0x00,0x00
44.805990250000001,377,0xB0,0xFF
44.805995500000002,377,0x00,0x9C
44.806144250000003,378,0x00,0x84
44.806150416666668,379,0xB0,0xFF
44.806155750000002,379,0x00,0xA4
44.806299666666668,380,0x00,0x88
44.806305833333333,381,0xB0,0xFF
44.806311083333334,381,0x00,0xAD
44.806458583333331,382,0x00,0x80
44.806464833333337,383,0xB0,0xFF
44.806470083333330,383,0x00,0x76
44.806614666666668,384,0x00,0x80
44.806620833333334,385,0xB0,0xFF
44.806626083333335,385,0x00,0x40
44.806775166666668,386,0x00,0x00
44.806781250000000,387,0xB0,0xFF
44.806786500000001,387,0x00,0xE7
44.806935250000002,388,0x00,0x84
44.806941416666668,389,0xB0,0xFF
44.806946750000002,389,0x00,0x53
44.806957333333337,390,0x92,0x00
44.806970666666665,391,0x82,0x00
44.806975749999999,392,0x92,0x00
44.807094333333332,393,0x00,0x04
44.807100416666664,394,0xB0,0xFF
44.807105666666665,394,0x00,0x73
44.807254416666666,395,0x00,0x82
44.807260666666664,396,0xB0,0xFF
44.807265916666665,396,0x00,0x09
44.807416250000003,397,0x00,0x82
44.807422500000001,398,0xB0,0xFF
44.807427750000002,398,0x00,0x31
44.807580750000000,399,0x00,0x00
44.807586833333332,400,0xB0,0xFF
44.807592083333333,400,0x00,0x90
44.807738833333332,401,0x00,0x8C
44.807744999999997,402,0xB0,0xFF
44.807750249999998,402,0x00,0x9A
44.807895166666668,403,0x00,0x0C
44.807901250000000,404,0xB0,0xFF
44.807906500000001,404,0x00,0x68
44.808056749999999,405,0x00,0x04
44.808062833333331,406,0xB0,0xFF
44.808068083333332,406,0x00,0x9A
44.808216250000001,407,0x00,0x80
44.808222499999999,408,0xB0,0xFF
44.808227750000000,408,0x00,0x36
44.808376583333335,409,0x00,0x80
44.808382750000000,410,0xB0,0xFF
44.808388000000001,410,0x00,0x77
44.808528583333334,411,0x00,0x0C
44.808534666666667,412,0xB0,0xFF
44.808539916666668,412,0x00,0x76
44.808685416666670,413,0x00,0x03
44.808691500000002,414,0xB0,0xFF
44.808696750000003,414,0x00,0x5C
44.808852000000002,415,0x00,0x00
44.808858083333334,416,0xB0,0xFF
44.808863333333335,416,0x00,0xDC
44.809016499999998,417,0x00,0x80
44.809022666666664,418,0xB0,0xFF
44.809027916666665,418,0x00,0xC6
44.809176666666666,419,0x00,0x84
44.809182916666664,420,0xB0,0xFF
44.809188166666665,420,0x00,0xF4
44.809343416666664,421,0x00,0x00
44.809349500000003,422,0xB0,0xFF
44.809354749999997,422,0x00,0x6D
44.809365499999998,423,0x01,0x00
44.809401333333334,424,0x82,0x00
44.809406416666668,425,0x91,0x00
44.809501500000003,426,0x00,0x80
44.809507666666669,427,0xB0,0xFF
44.809512916666669,427,0x00,0xB0
44.809663916666665,428,0x00,0x80
44.809670083333330,429,0xB0,0xFF
44.809675333333331,429,0x00,0x22
44.809827083333332,430,0x00,0x80
44.809833249999997,431,0xB0,0xFF
44.809838499999998,431,0x00,0x5B
44.809985249999997,432,0x00,0x80
44.809991500000002,433,0xB0,0xFF
44.809996750000003,433,0x00,0x96
44.810141416666667,434,0x00,0x00
44.810147499999999,435,0xB0,0xFF
44.810152750000000,435,0x00,0x30
44.810297499999997,436,0x00,0x88
44.810303666666670,437,0xB0,0xFF
44.810308999999997,437,0x00,0x3A
44.810455833333336,438,0x00,0x00
44.810461916666668,439,0xB0,0xFF
44.810467166666669,439,0x00,0x44
44.810618249999997,440,0x00,0x00
44.810624333333337,441,0xB0,0xFF
44.810629583333331,441,0x00,0x63
44.810774083333335,442,0x00,0x80
44.810780250000001,443,0xB0,0xFF
44.810785500000001,443,0x00,0xE3
44.810932416666667,444,0x00,0x00
44.810938499999999,445,0xB0,0xFF
44.810943750000000,445,0x00,0x3C
44.811098333333334,446,0x00,0x80
44.811104499999999,447,0xB0,0xFF
44.811109750000000,447,0x00,0x83
44.811262083333332,448,0x00,0x80
44.811268333333331,449,0xB0,0xFF
44.811273583333332,449,0x00,0xEC
44.811422333333333,450,0x00,0x80
44.811428499999998,451,0xB0,0xFF
44.811433749999999,451,0x00,0x77
44.811586916666670,452,0x00,0x80
44.811593083333335,453,0xB0,0xFF
44.811598333333336,453,0x00,0xCE
44.811753500000002,454,0x00,0x80
44.811759750000000,455,0xB0,0xFF
44.811765000000001,455,0x00,0xEB
44.811775583333336,456,0x92,0x00
44.811788916666664,457,0x82,0x00
44.811793999999999,458,0x92,0x00
44.811913083333330,459,0x00,0x80
44.811919333333336,460,0xB0,0xFF
44.811924583333337,460,0x00,0x0D
44.812075499999999,461,0x00,0x88
44.812081666666664,462,0xB0,0xFF
44.812086999999998,462,0x00,0x7B
44.812236499999997,463,0x00,0x80
44.812242750000003,464,0xB0,0xFF
44.812247999999997,464,0x00,0xD6
44.812412500000001,465,0x00,0x00
44.812418583333333,466,0xB0,0xFF
44.812423833333334,466,0x00,0x7B
44.812560499999996,467,0x00,0x80
44.812566750000002,468,0xB0,0xFF
44.812572000000003,468,0x00,0x14
44.812727250000002,469,0x00,0x08
44.812733333333334,470,0xB0,0xFF
44.812738583333335,470,0x00,0x9B
44.812889499999997,471,0x00,0x80
44.812895750000003,472,0xB0,0xFF
44.812900999999997,472,0x00,0xCC
44.813047750000003,473,0x00,0x80
44.813053916666668,474,0xB0,0xFF
44.813059166666669,474,0x00,0x29
44.813216500000003,475,0x00,0x80
44.813222750000001,476,0xB0,0xFF
44.813228000000002,476,0x00,0x69
44.813383083333335,477,0x00,0x80
44.813389333333333,478,0xB0,0xFF
44.813394583333334,478,0x00,0x30
44.813547499999999,479,0x00,0x80
44.813553749999997,480,0xB0,0xFF
44.813558999999998,480,0x00,0x3B
44.813703750000002,481,0x00,0x80
44.813709916666667,482,0xB0,0xFF
44.813715166666668,482,0x00,0x39
44.813870333333334,483,0x00,0x80
44.813876499999999,484,0xB0,0xFF
44.813881750000000,484,0x00,0x59
44.814030666666667,485,0x00,0x00
44.814036750000000,486,0xB0,0xFF
44.814042000000001,486,0x00,0xCE
44.814186749999998,487,0x00,0x80
44.814192916666670,488,0xB0,0xFF
44.814198249999997,488,0x00,0x9F
44.814208833333332,489,0x92,0x00
44.814222166666667,490,0x82,0x00
44.814227250000002,491,0x92,0x00
44.814347083333331,492,0x00,0x00
44.814353166666663,493,0xB0,0xFF
44.814358416666664,493,0x00,0x42
44.814511583333335,494,0x00,0x80
44.814517750000000,495,0xB0,0xFF
44.814523000000001,495,0x00,0xCF
44.814671750000002,496,0x00,0x80
44.814678000000001,497,0xB0,0xFF
44.814683250000002,497,0x00,0xCE
44.814832166666669,498,0x00,0x80
44.814838416666667,499,0xB0,0xFF
44.814843666666668,499,0x00,0x35
44.814996583333333,500,0x00,0x80
44.815002749999998,501,0xB0,0xFF
44.815007999999999,501,0x00,0x19
44.815159000000001,502,0x00,0x80
44.815165166666667,503,0xB0,0xFF
44.815170416666668,503,0x00,0x7E
44.815323583333331,504,0x00,0x80
44.815329749999997,505,0xB0,0xFF
44.815334999999997,505,0x00,0xA5
44.815477583333333,506,0x00,0x80
44.815483833333332,507,0xB0,0xFF
44.815489083333333,507,0x00,0x8E
44.815635749999998,508,0x00,0x80
44.815641916666664,509,0xB0,0xFF
44.815647166666665,509,0x00,0x6B
44.815796083333332,510,0x00,0x04
44.815802166666664,511,0xB0,0xFF
44.815807416666665,511,0x00,0x8D
44.815957833333336,512,0x00,0x80
44.815964000000001,513,0xB0,0xFF
44.815969250000002,513,0x00,0x92
44.816120333333330,514,0x00,0x00
44.816126416666670,515,0xB0,0xFF
44.816131666666664,515,0x00,0xE6
44.816281166666670,516,0x00,0x80
44.816287416666668,517,0xB0,0xFF
44.816292666666669,517,0x00,0x97
44.816448333333334,518,0x00,0x00
44.816454416666666,519,0xB0,0xFF
44.816459666666667,519,0x00,0x6F
44.816603916666665,520,0x00,0x00
44.816609999999997,521,0xB0,0xFF
44.816615249999998,521,0x00,0xA8
44.816625999999999,522,0x01,0x00
44.816639083333335,523,0xA5,0x00
44.816644250000003,524,0x80,0x00
44.816761999999997,525,0x00,0x80
44.816768166666670,526,0xB0,0xFF
44.816773499999996,526,0x00,0x0F
44.816920333333336,527,0x00,0x00
44.816926416666668,528,0xB0,0xFF
44.816931666666669,528,0x00,0xDA
44.817090999999998,529,0x00,0x80
44.817097166666670,530,0xB0,0xFF
44.817102499999997,530,0x00,0x8B
44.817251416666664,531,0x00,0x80
44.817257583333337,532,0xB0,0xFF
44.817262833333331,532,0x00,0xEF
44.817411749999998,533,0x00,0x00
44.817417833333330,534,0xB0,0xFF
44.817423083333331,534,0x00,0xBA
44.817578333333330,535,0x00,0x08
44.817584416666669,536,0xB0,0xFF
44.817589666666670,536,0x00,0x55
44.817738749999997,537,0x00,0x00
44.817744833333336,538,0xB0,0xFF
44.817750083333337,538,0x00,0xD1
44.817907333333331,539,0x00,0x00
44.817913416666670,540,0xB0,0xFF
44.817918666666664,540,0x00,0x13
44.818059249999997,541,0x00,0x80
44.818065416666670,542,0xB0,0xFF
44.818070666666664,542,0x00,0x9B
44.818221666666666,543,0x00,0x80
44.818227833333331,544,0xB0,0xFF
44.818233083333332,544,0x00,0xAC
44.818376250000000,545,0x00,0x88
44.818382416666665,546,0xB0,0xFF
44.818387666666666,546,0x00,0x0C
44.818537999999997,547,0x00,0x88
44.818544166666669,548,0xB0,0xFF
44.818549416666670,548,0x00,0x3B
44.818691999999999,549,0x00,0x80
44.818698249999997,550,0xB0,0xFF
44.818703499999998,550,0x00,0x13
44.818852249999999,551,0x00,0x80
44.818858416666664,552,0xB0,0xFF
44.818863666666665,552,0x00,0xF8
44.819010416666664,553,0x00,0x80
44.819016666666670,554,0xB0,0xFF
44.819021916666664,554,0x00,0xB0
44.819032499999999,555,0x80,0x00
44.819045750000001,556,0xA5,0x00
44.819050916666669,557,0x91,0x00
44.819162416666664,558,0x00,0x80
44.819168583333337,559,0xB0,0xFF
44.819173833333330,559,0x00,0x8E
44.819322749999998,560,0x00,0x08
44.819328833333330,561,0xB0,0xFF
44.819334083333331,561,0x00,0x4F
44.819493583333333,562,0x00,0x00
44.819499666666665,563,0xB0,0xFF
44.819504916666666,563,0x00,0x46
44.819651749999998,564,0x00,0x00
44.819657833333331,565,0xB0,0xFF
44.819663083333332,565,0x00,0x97
44.819811999999999,566,0x00,0x80
44.819818249999997,567,0xB0,0xFF
44.819823499999998,567,0x00,0xB7
44.819972249999999,568,0x00,0x80
44.819978416666665,569,0xB0,0xFF
44.819983666666666,569,0x00,0x18
44.820134666666668,570,0x00,0x80
44.820140833333333,571,0xB0,0xFF
44.820146083333334,571,0x00,0xCD
44.820299249999998,572,0x00,0x80
44.820305416666663,573,0xB0,0xFF
44.820310666666664,573,0x00,0x36
44.820484000000000,574,0x00,0x80
44.820490249999999,575,0xB0,0xFF
44.820495500000000,575,0x00,0xCC
44.820623416666663,576,0x00,0x0C
44.820629500000003,577,0xB0,0xFF
44.820634750000004,577,0x00,0x05
44.820784250000003,578,0x00,0x80
44.820790416666668,579,0xB0,0xFF
44.820795750000002,579,0x00,0x39
44.820946666666664,580,0x00,0x80
44.820952833333337,581,0xB0,0xFF
44.820958083333331,581,0x00,0x54
44.821103000000001,582,0x00,0x08
44.821109083333333,583,0xB0,0xFF
44.821114333333334,583,0x00,0x34
44.821263083333335,584,0x00,0x80
44.821269250000000,585,0xB0,0xFF
44.821274500000001,585,0x00,0x98
44.821425499999997,586,0x00,0x80
44.821431666666669,587,0xB0,0xFF
44.821436916666670,587,0x00,0x7C
44.821447583333331,588,0x93,0x00
44.821460750000000,589,0xC2,0x00
44.821466083333334,590,0x01,0x00
44.821587916666665,591,0x00,0x80
44.821594083333331,592,0xB0,0xFF
44.821599333333332,592,0x00,0xC9
44.821744083333336,593,0x00,0x84
44.821750333333334,594,0xB0,0xFF
44.821755583333335,594,0x00,0x9F
44.821898083333330,595,0x00,0x80
44.821904250000003,596,0xB0,0xFF
44.821909499999997,596,0x00,0xFA
44.822058249999998,597,0x00,0x80
44.822064500000003,598,0xB0,0xFF
44.822069749999997,598,0x00,0x5C
44.822220666666666,599,0x00,0x80
44.822226916666665,600,0xB0,0xFF
44.822232166666666,600,0x00,0x7A
44.822376916666670,601,0x00,0x80
44.822383083333335,602,0xB0,0xFF
44.822388333333336,602,0x00,0xC9
44.822535083333335,603,0x00,0x80
44.822541333333334,604,0xB0,0xFF
44.822546583333335,604,0x00,0xFE
44.822695333333336,605,0x00,0x80
44.822701500000001,606,0xB0,0xFF
44.822706750000002,606,0x00,0x44
44.822855833333335,607,0x00,0x04
44.822861916666668,608,0xB0,0xFF
44.822867166666668,608,0x00,0x9A
44.823020249999999,609,0x00,0x00
44.823026333333331,610,0xB0,0xFF
44.823031583333332,610,0x00,0x4A
44.823182500000001,611,0x00,0x80
44.823188750000000,612,0xB0,0xFF
44.823194000000001,612,0x00,0xC0
44.823347249999998,613,0x00,0x00
44.823353333333330,614,0xB0,0xFF
44.823358583333331,614,0x00,0xC3
44.823513583333330,615,0x00,0x00
44.823519666666670,616,0xB0,0xFF
44.823524916666663,616,0x00,0xA9
44.823682333333331,617,0x00,0x80
44.823688500000003,618,0xB0,0xFF
44.823693749999997,618,0x00,0x1B
44.823842833333330,619,0x00,0x00
44.823848916666670,620,0xB0,0xFF
44.823854166666663,620,0x00,0x86
44.823864916666665,621,0x01,0x00
44.823878000000001,622,0xA5,0x00
44.823883166666668,623,0x80,0x00
44.824002333333333,624,0x00,0x88
44.824008499999998,625,0xB0,0xFF
44.824013749999999,625,0x00,0xBF
44.824166166666664,626,0x00,0x88
44.824172333333337,627,0xB0,0xFF
44.824177583333331,627,0x00,0xB6
44.824334250000000,628,0x00,0x00
44.824340333333332,629,0xB0,0xFF
44.824345583333333,629,0x00,0x8D
44.824496500000002,630,0x00,0x84
44.824502750000001,631,0xB0,0xFF
44.824508000000002,631,0x00,0x3E
44.824652666666665,632,0x00,0x00
44.824658749999998,633,0xB0,0xFF
44.824663999999999,633,0x00,0xA1
44.824817166666669,634,0x00,0x80
44.824823333333335,635,0xB0,0xFF
44.824828583333336,635,0x00,0xB7
44.824979666666664,636,0x00,0x00
44.824985750000003,637,0xB0,0xFF
44.824990999999997,637,0x00,0x1F
44.825137750000003,638,0x00,0x84
44.825143916666669,639,0xB0,0xFF
44.825149250000003,639,0x00,0x15
44.825297916666663,640,0x00,0x84
44.825304083333336,641,0xB0,0xFF
44.825309333333337,641,0x00,0xB7
44.825464583333336,642,0x00,0x80
44.825470750000001,643,0xB0,0xFF
44.825476000000002,643,0x00,0x3D
44.825625083333335,644,0x00,0x00
44.825631166666668,645,0xB0,0xFF
44.825636416666669,645,0x00,0x00
44.825787499999997,646,0x00,0x00
44.825793583333336,647,0xB0,0xFF
44.825798833333330,647,0x00,0x73
44.825951750000002,648,0x00,0x82
44.825958000000000,649,0xB0,0xFF
44.825963250000001,649,0x00,0x3E
44.826116416666665,650,0x00,0x82
44.826122666666670,651,0xB0,0xFF
44.826127916666664,651,0x00,0x98
44.826278750000000,652,0x00,0x82
44.826284999999999,653,0xB0,0xFF
44.826290250000000,653,0x00,0x0F
44.826300833333335,654,0x81,0x00
44.826314083333337,655,0xA5,0x00
44.826319249999997,656,0x91,0x00
44.826447500000000,657,0x00,0x00
44.826453583333333,658,0xB0,0xFF
44.826458833333334,658,0x00,0x2A
44.826603583333331,659,0x00,0x8C
44.826609750000003,660,0xB0,0xFF
44.826614999999997,660,0x00,0x50
44.826768000000001,661,0x00,0x80
44.826774166666667,662,0xB0,0xFF
44.826779416666668,662,0x00,0x15
44.826930416666670,663,0x00,0x80
44.826936583333335,664,0xB0,0xFF
44.826941833333336,664,0x00,0xD7
44.827090916666670,665,0x00,0x08
44.827097000000002,666,0xB0,0xFF
44.827102250000003,666,0x00,0xC7
44.827250916666664,667,0x00,0x82
44.827257166666669,668,0xB0,0xFF
44.827262416666663,668,0x00,0xF9
44.827407166666667,669,0x00,0x84
44.827413333333332,670,0xB0,0xFF
44.827418583333333,670,0x00,0x0D
44.827567500000001,671,0x00,0x00
44.827573583333333,672,0xB0,0xFF
44.827578833333334,672,0x00,0x79
44.827732083333331,673,0x00,0x08
44.827738166666670,674,0xB0,0xFF
44.827743416666664,674,0x00,0x58
44.827890166666670,675,0x00,0x84
44.827896416666668,676,0xB0,0xFF
44.827901666666669,676,0x00,0x2C
44.828048416666668,677,0x00,0x80
44.828054583333333,678,0xB0,0xFF
44.828059833333334,678,0x00,0x91
44.828208583333335,679,0x00,0x82
44.828214833333334,680,0xB0,0xFF
44.828220083333335,680,0x00,0xF9
44.828370999999997,681,0x00,0x84
44.828377250000003,682,0xB0,0xFF
44.828382499999996,682,0x00,0xD8
44.828532916666667,683,0x00,0x04
44.828538999999999,684,0xB0,0xFF
44.828544250000000,684,0x00,0x51
44.828688166666666,685,0x00,0x82
44.828694416666664,686,0xB0,0xFF
44.828699666666665,686,0x00,0x44
44.828710250000000,687,0x81,0x00
44.828723583333336,688,0x82,0x00
44.828728666666663,689,0x91,0x00
44.828846416666664,690,0x00,0x80
44.828852583333337,691,0xB0,0xFF
44.828857833333331,691,0x00,0xEE
44.829004583333337,692,0x00,0x82
44.829010833333335,693,0xB0,0xFF
44.829016083333336,693,0x00,0x66
44.829169000000000,694,0x00,0x82
44.829175249999999,695,0xB0,0xFF
44.829180500000000,695,0x00,0x3F
44.829325249999997,696,0x00,0x80
44.829331416666669,697,0xB0,0xFF
44.829336666666670,697,0x00,0x47
44.829486833333334,698,0x00,0x80
44.829492999999999,699,0xB0,0xFF
44.829498250000000,699,0x00,0x6D
44.829655583333334,700,0x00,0x82
44.829661833333333,701,0xB0,0xFF
44.829667083333334,701,0x00,0xEE
44.829818000000003,702,0x00,0x84
44.829824166666668,703,0xB0,0xFF
44.829829500000002,703,0x00,0xFB
44.829979000000002,704,0x00,0x80
44.829985250000000,705,0xB0,0xFF
44.829990500000001,705,0x00,0x7F
44.830136250000002,706,0x00,0x84
44.830142416666668,707,0xB0,0xFF
44.830147666666669,707,0x00,0xC1
44.830291333333335,708,0x00,0x00
44.830297416666667,709,0xB0,0xFF
44.830302666666668,709,0x00,0x80
44.830455166666667,710,0x00,0x04
44.830461249999999,711,0xB0,0xFF
44.830466500000000,711,0x00,0x70
44.830619416666664,712,0x00,0x82
44.830625666666670,713,0xB0,0xFF
44.830630916666664,713,0x00,0xE8
44.830788916666670,714,0x00,0x00
44.830795000000002,715,0xB0,0xFF
44.830800250000003,715,0x00,0xE5
44.830945000000000,716,0x00,0x84
44.830951249999998,717,0xB0,0xFF
44.830956499999999,717,0x00,0xD3
44.831103249999998,718,0x00,0x80
44.831109416666663,719,0xB0,0xFF
44.831114666666664,719,0x00,0xB7
44.831125333333333,720,0x93,0x00
44.831142249999999,721,0xA5,0x00
44.831147583333333,722,0x01,0x00
44.831261416666663,723,0x00,0x82
44.831267666666669,724,0xB0,0xFF
44.831272916666670,724,0x00,0x14
44.831421666666664,725,0x00,0x80
44.831427833333336,726,0xB0,0xFF
44.831433083333330,726,0x00,0x46
44.831586000000001,727,0x00,0x84
44.831592166666667,728,0xB0,0xFF
44.831597416666668,728,0x00,0x1C
44.831746583333334,729,0x00,0x04
44.831752666666667,730,0xB0,0xFF
44.831757916666668,730,0x00,0x5E
44.831901833333333,731,0x00,0x82
44.831908083333332,732,0xB0,0xFF
44.831913333333333,732,0x00,0x48
44.832056000000001,733,0x00,0x00
44.832062083333334,734,0xB0,0xFF
44.832067333333335,734,0x00,0x2F
44.832212666666663,735,0x00,0x88
44.832218833333336,736,0xB0,0xFF
44.832224083333337,736,0x00,0x54
44.832372249999999,737,0x00,0x80
44.832378416666664,738,0xB0,0xFF
44.832383666666665,738,0x00,0xD0
44.832530416666664,739,0x00,0x80
44.832536666666670,740,0xB0,0xFF
44.832541916666663,740,0x00,0x22
44.832692833333333,741,0x00,0x86
44.832699083333331,742,0xB0,0xFF
44.832704333333332,742,0x00,0x4C
44.832855250000001,743,0x00,0x80
44.832861416666667,744,0xB0,0xFF
44.832866750000001,744,0x00,0xC7
44.833013583333333,745,0x00,0x00
44.833019666666665,746,0xB0,0xFF
44.833024916666666,746,0x00,0xCF
44.833169666666670,747,0x00,0x80
44.833175916666669,748,0xB0,0xFF
44.833181166666670,748,0x00,0x8A
44.833330666666669,749,0x00,0x88
44.833336833333334,750,0xB0,0xFF
44.833342083333335,750,0x00,0xCD
44.833491666666667,751,0x00,0x80
44.833497833333332,752,0xB0,0xFF
44.833503166666667,752,0x00,0x10
44.833513750000002,753,0x92,0x00
44.833527083333337,754,0x82,0x00
44.833532166666664,755,0x92,0x00
44.833654083333336,756,0x00,0x80
44.833660250000001,757,0xB0,0xFF
44.833665500000002,757,0x00,0xC8
44.833815666666666,758,0x00,0x80
44.833821833333332,759,0xB0,0xFF
44.833827083333333,759,0x00,0xA1
44.833971083333331,760,0x00,0x80
44.833977249999997,761,0xB0,0xFF
44.833982499999998,761,0x00,0x0F
44.834129249999997,762,0x00,0x80
44.834135500000002,763,0xB0,0xFF
44.834140750000003,763,0x00,0x1C
44.834293083333336,764,0x00,0x80
44.834299250000001,765,0xB0,0xFF
44.834304500000002,765,0x00,0x66
44.834443000000000,766,0x00,0x00
44.834449083333332,767,0xB0,0xFF
44.834454333333333,767,0x00,0x00
44.834609416666666,768,0x00,0x80
44.834615583333331,769,0xB0,0xFF
44.834620916666665,769,0x00,0x33
44.834759333333331,770,0x00,0x80
44.834765500000003,771,0xB0,0xFF
44.834770749999997,771,0x00,0xEC
44.834919833333331,772,0x00,0x00
44.834925916666670,773,0xB0,0xFF
44.834931166666664,773,0x00,0xCF
44.835075666666668,774,0x00,0x80
44.835081833333334,775,0xB0,0xFF
44.835087166666668,775,0x00,0xAA
44.835238083333330,776,0x00,0x80
44.835244250000002,777,0xB0,0xFF
44.835249500000003,777,0x00,0x78
44.835401916666669,778,0x00,0x80
44.835408083333334,779,0xB0,0xFF
44.835413416666668,779,0x00,0xCE
44.835568500000001,780,0x00,0x80
44.835574749999999,781,0xB0,0xFF
44.835580000000000,781,0x00,0x67
44.835724749999997,782,0x00,0x80
44.835730916666670,783,0xB0,0xFF
44.835736166666663,783,0x00,0x63
44.835882916666669,784,0x00,0x80
44.835889166666668,785,0xB0,0xFF
44.835894416666669,785,0x00,0xB8
44.835904999999997,786,0x81,0x00
44.835918249999999,787,0xA5,0x00
44.835923416666667,788,0x91,0x00
44.836039833333331,789,0x00,0x04
44.836045916666670,790,0xB0,0xFF
44.836051166666664,790,0x00,0xC1
44.836202749999998,791,0x00,0x80
44.836208916666664,792,0xB0,0xFF
44.836214166666664,792,0x00,0x3F
44.836360916666663,793,0x00,0x88
44.836367083333336,794,0xB0,0xFF
44.836372333333337,794,0x00,0x27
44.836518666666670,795,0x00,0x00
44.836524750000002,796,0xB0,0xFF
44.836530000000003,796,0x00,0x79
44.836678666666664,797,0x00,0x80
44.836684916666670,798,0xB0,0xFF
44.836690166666664,798,0x00,0x4E
44.836832833333332,799,0x00,0x00
44.836838916666665,800,0xB0,0xFF
44.836844166666666,800,0x00,0x84
44.836992416666668,801,0x00,0x04
44.836998500000000,802,0xB0,0xFF
44.837003750000001,802,0x00,0xF0
44.837155500000001,803,0x00,0x80
44.837161750000000,804,0xB0,0xFF
44.837167000000001,804,0x00,0x20
44.837316666666666,805,0x00,0x00
44.837322749999998,806,0xB0,0xFF
44.837327999999999,806,0x00,0x7D
44.837479083333335,807,0x00,0x00
44.837485166666667,808,0xB0,0xFF
44.837490416666668,808,0x00,0x77
44.837637000000001,809,0x00,0x80
44.837643166666666,810,0xB0,0xFF
44.837648416666667,810,0x00,0x12
44.837791250000002,811,0x00,0x00
44.837797333333334,812,0xB0,0xFF
44.837802583333335,812,0x00,0x88
44.837955500000000,813,0x00,0x84
44.837961749999998,814,0xB0,0xFF
44.837966999999999,814,0x00,0x77
44.838115916666666,815,0x00,0x80
44.838122166666665,816,0xB0,0xFF
44.838127416666666,816,0x00,0x9F
44.838276166666667,817,0x00,0x80
44.838282333333332,818,0xB0,0xFF
44.838287583333333,818,0x00,0xFB
44.838298250000001,819,0x93,0x00
44.838311416666670,820,0xA5,0x00
44.838316749999997,821,0x01,0x00
44.838434333333332,822,0x00,0x84
44.838440583333330,823,0xB0,0xFF
44.838445833333331,823,0x00,0xBC
44.838596250000002,824,0x00,0x04
44.838602333333334,825,0xB0,0xFF
44.838607583333335,825,0x00,0x96
44.838758666666664,826,0x00,0x04
44.838764750000003,827,0xB0,0xFF
44.838769999999997,827,0x00,0xFF
44.838917500000001,828,0x00,0x00
44.838923583333333,829,0xB0,0xFF
44.838928833333334,829,0x00,0x01
44.839075083333334,830,0x00,0x04
44.839081166666666,831,0xB0,0xFF
44.839086416666667,831,0x00,0x8D
44.839237500000003,832,0x00,0x00
44.839243583333335,833,0xB0,0xFF
44.839248833333336,833,0x00,0x32
44.839397583333330,834,0x00,0x80
44.839403750000002,835,0xB0,0xFF
44.839409000000003,835,0x00,0xC6
44.839566333333330,836,0x00,0x80
44.839572583333336,837,0xB0,0xFF
44.839577833333337,837,0x00,0xDE
44.839716166666669,838,0x00,0x80
44.839722416666667,839,0xB0,0xFF
44.839727666666668,839,0x00,0x8C
44.839878583333331,840,0x00,0x80
44.839884833333336,841,0xB0,0xFF
44.839890083333330,841,0x00,0x4E
44.840038749999998,842,0x00,0x88
44.840044916666663,843,0xB0,0xFF
44.840050166666664,843,0x00,0x1D
44.840188333333330,844,0x00,0x80
44.840194500000003,845,0xB0,0xFF
44.840199749999996,845,0x00,0x58
44.840350999999998,846,0x00,0x80
44.840357166666664,847,0xB0,0xFF
44.840362416666665,847,0x00,0x47
44.840513416666667,848,0x00,0x80
44.840519583333332,849,0xB0,0xFF
44.840524833333333,849,0x00,0xDB
44.840673916666667,850,0x00,0x00
44.840679999999999,851,0xB0,0xFF
44.840685250000000,851,0x00,0x8D
44.840696000000001,852,0x01,0x00
44.840709083333330,853,0xA5,0x00
44.840714249999998,854,0x80,0x00
44.840838166666664,855,0x00,0x80
44.840844416666670,856,0xB0,0xFF
44.840849666666664,856,0x00,0x3D
44.840997250000001,857,0x00,0x80
44.841003416666666,858,0xB0,0xFF
44.841008666666667,858,0x00,0xB0
44.841159583333337,859,0x00,0x80
44.841165750000002,860,0xB0,0xFF
44.841171000000003,860,0x00,0xE9
44.841322083333331,861,0x00,0x00
44.841328166666663,862,0xB0,0xFF
44.841333416666664,862,0x00,0xC9
44.841482166666665,863,0x00,0x80
44.841488416666664,864,0xB0,0xFF
44.841493666666665,864,0x00,0xB3
44.841644583333334,865,0x00,0x80
44.841650749999999,866,0xB0,0xFF
44.841656083333334,866,0x00,0xEF
44.841805000000001,867,0x00,0x80
44.841811166666666,868,0xB0,0xFF
44.841816416666667,868,0x00,0x99
44.841965333333334,869,0x00,0x00
44.841971416666667,870,0xB0,0xFF
44.841976666666667,870,0x00,0xF3
44.842127583333337,871,0x00,0x80
44.842133833333335,872,0xB0,0xFF
44.842139083333336,872,0x00,0x38
44.842292166666667,873,0x00,0x80
44.842298416666665,874,0xB0,0xFF
44.842303666666666,874,0x00,0x8B
44.842448249999997,875,0x00,0x80
44.842454416666669,876,0xB0,0xFF
44.842459666666670,876,0x00,0xFB
44.842610749999999,877,0x00,0x00
44.842616833333331,878,0xB0,0xFF
44.842622083333332,878,0x00,0xA3
44.842777249999997,879,0x00,0x80
44.842783416666670,880,0xB0,0xFF
44.842788666666664,880,0x00,0x6A
44.842939000000001,881,0x00,0x80
44.842945166666667,882,0xB0,0xFF
44.842950416666667,882,0x00,0x6D
44.843100000000000,883,0x00,0x80
44.843106249999998,884,0xB0,0xFF
44.843111499999999,884,0x00,0x71
44.843122083333334,885,0x81,0x00
44.843135333333336,886,0xA5,0x00
44.843140499999997,887,0x91,0x00
44.843262416666668,888,0x00,0x80
44.843268666666667,889,0xB0,0xFF
44.843273916666668,889,0x00,0xF8
44.843429000000000,890,0x00,0x80
44.843435249999999,891,0xB0,0xFF
44.843440500000000,891,0x00,0xF5
44.843590749999997,892,0x00,0x04
44.843596833333336,893,0xB0,0xFF
44.843602083333330,893,0x00,0x72
44.843758000000001,894,0x00,0x80
44.843764250000000,895,0xB0,0xFF
44.843769500000001,895,0x00,0x37
44.843920416666670,896,0x00,0x80
44.843926666666668,897,0xB0,0xFF
44.843931916666669,897,0x00,0x08
44.844076583333333,898,0x00,0x04
44.844082666666665,899,0xB0,0xFF
44.844087916666666,899,0x00,0x7A
44.844235416666663,900,0x00,0x80
44.844241583333336,901,0xB0,0xFF
44.844246833333337,901,0x00,0x16
44.844393750000002,902,0x00,0x00
44.844399833333334,903,0xB0,0xFF
44.844405083333335,903,0x00,0x0B
44.844549666666666,904,0x00,0x80
44.844555833333331,905,0xB0,0xFF
44.844561083333332,905,0x00,0x23
44.844707833333331,906,0x00,0x80
44.844714083333336,907,0xB0,0xFF
44.844719333333330,907,0x00,0x8D
44.844868249999998,908,0x00,0x80
44.844874500000003,909,0xB0,0xFF
44.844879749999997,909,0x00,0x3E
44.845039166666666,910,0x00,0x00
44.845045249999998,911,0xB0,0xFF
44.845050499999999,911,0x00,0x2B
44.845191000000000,912,0x00,0x08
44.845197083333332,913,0xB0,0xFF
44.845202333333333,913,0x00,0xB5
44.845351416666666,914,0x00,0x04
44.845357499999999,915,0xB0,0xFF
44.845362750000000,915,0x00,0x8B
44.845512999999997,916,0x00,0x04
44.845519083333336,917,0xB0,0xFF
44.845524333333330,917,0x00,0xF9
44.845535083333331,918,0x01,0x00
44.845548166666667,919,0xA5,0x00
44.845553333333335,920,0x80,0x00
44.845674666666667,921,0x00,0x88
44.845680833333333,922,0xB0,0xFF
44.845686083333334,922,0x00,0xF9
44.845839083333331,923,0x00,0x80
44.845845250000004,924,0xB0,0xFF
44.845850499999997,924,0x00,0x27
44.845997250000003,925,0x00,0x82
44.846003500000002,926,0xB0,0xFF
44.846008750000003,926,0x00,0x8D
44.846153500000000,927,0x00,0x80
44.846159666666665,928,0xB0,0xFF
44.846164916666666,928,0x00,0xB9
44.846315916666668,929,0x00,0x80
44.846322083333334,930,0xB0,0xFF
44.846327333333335,930,0x00,0x67
44.846482500000000,931,0x00,0x80
44.846488666666666,932,0xB0,0xFF
44.846493916666667,932,0x00,0xAF
44.846640666666666,933,0x00,0x82
44.846646916666664,934,0xB0,0xFF
44.846652166666665,934,0x00,0x75
44.846800416666667,935,0x00,0x00
44.846806500000000,936,0xB0,0xFF
44.846811750000001,936,0x00,0xB0
44.846958500000000,937,0x00,0x84
44.846964666666665,938,0xB0,0xFF
44.846969916666666,938,0x00,0x66
44.847113916666665,939,0x00,0x80
44.847120083333330,940,0xB0,0xFF
44.847125333333331,940,0x00,0x65
44.847272083333330,941,0x00,0x82
44.847278333333335,942,0xB0,0xFF
44.847283583333336,942,0x00,0xFF
44.847428083333334,943,0x00,0x80
44.847434249999999,944,0xB0,0xFF
44.847439500000000,944,0x00,0xE5
44.847588583333334,945,0x00,0x00
44.847594666666666,946,0xB0,0xFF
44.847599916666667,946,0x00,0x1F
44.848890583333336,947,0x00,0x00
44.848896666666668,948,0xB0,0xFF
44.848901916666669,948,0x00,0x67
44.848917666666665,949,0x00,0x84
44.848923833333330,950,0xB0,0xFF
44.848929083333331,950,0x00,0xFE
44.848939750000000,951,0x92,0x00
44.848979249999999,952,0xA5,0x00
44.848984416666667,953,0x91,0x00
44.850873083333333,954,0x00,0x1F
44.850879166666665,955,0xB0,0xFF
44.850884416666666,955,0x00,0x05
44.851033999999999,956,0x00,0x8E
44.851040166666664,957,0xB0,0xFF
44.851045416666665,957,0x00,0x02
44.851196416666667,958,0x00,0x8F
44.851202583333333,959,0xB0,0xFF
44.851207833333333,959,0x00,0x03
44.851359333333335,960,0x00,0x8D
44.851365583333333,961,0xB0,0xFF
44.851370833333334,961,0x00,0x40
44.851521750000003,962,0x00,0x88
44.851528000000002,963,0xB0,0xFF
44.851533250000003,963,0x00,0x99
44.851685666666668,964,0x00,0x1F
44.851691750000001,965,0xB0,0xFF
44.851697000000001,965,0x00,0x18
44.851847499999998,966,0x00,0x1F
44.851853583333330,967,0xB0,0xFF
44.851858833333331,967,0x00,0x7E
44.852009083333336,968,0x00,0x0E
44.852015166666668,969,0xB0,0xFF
44.852020416666669,969,0x00,0x78
44.852030833333330,970,0x93,0x00
44.852083916666665,971,0xA5,0x00
44.852089083333333,972,0x80,0x00
44.852099000000003,973,0x82,0x00
44.852104249999996,974,0x01,0x00
44.852116583333334,975,0x96,0x00
44.852514999999997,976,0x00,0x8E
44.852522083333334,977,0x48,0xFF
44.852677416666666,978,0x00,0x8C
44.852684333333336,979,0xA7,0xFF
44.852839833333334,980,0x00,0x80
44.852846749999998,981,0xA7,0xFF
44.853002250000003,982,0x00,0x80
44.853009166666666,983,0xE6,0xFF
44.853164583333331,984,0x00,0x80
44.853172083333334,985,0xE3,0xFF
44.853327000000000,986,0x00,0x8C
44.853336083333332,987,0xA0,0xFF
44.853489500000002,988,0x00,0x18
44.853498416666667,989,0xA0,0xFF
44.853651833333331,990,0x00,0x8C
44.853660916666669,991,0xE1,0xFF
44.853814166666666,992,0x00,0x8E
44.853823249999998,993,0xE8,0xFF
44.853976666666668,994,0x00,0x80
44.853983916666664,995,0xEA,0xFE
44.854139000000004,996,0x00,0x80
44.854146333333333,997,0xE1,0xFE
44.854301583333331,998,0x00,0x18
44.854308333333336,999,0xEF,0xFF
44.854463916666667,1000,0x00,0x18
44.854470333333332,1001,0x80,0xFF
44.854475749999999,1002,0xEF,0xFF
44.854509833333331,1003,0x82,0x00
44.854514916666666,1004,0x91,0x00
58.808370083333337,1005,0x00,0x8E
58.808376250000002,1006,0xB0,0xFF
58.808381500000003,1006,0x00,0x05
58.808531833333333,1007,0x00,0x8F
58.808538083333332,1008,0xB0,0xFF
58.808543333333333,1008,0x00,0x02
58.808694250000002,1009,0x00,0x8B
58.808700416666667,1010,0xB0,0xFF
58.808705666666668,1010,0x00,0x03
58.808856833333330,1011,0x00,0x1F
58.808862916666669,1012,0xB0,0xFF
58.808868166666670,1012,0x00,0x40
58.809019666666664,1013,0x00,0x8F
58.809025916666670,1014,0xB0,0xFF
58.809031166666664,1014,0x00,0x99
58.809182083333333,1015,0x00,0x88
58.809188249999998,1016,0xB0,0xFF
58.809193499999999,1016,0x00,0x18
58.809344500000002,1017,0x00,0x8E
58.809350666666667,1018,0xB0,0xFF
58.809355916666668,1018,0x00,0x7E
58.809506249999998,1019,0x00,0x8D
58.809512499999997,1020,0xB0,0xFF
58.809517749999998,1020,0x00,0x78
58.809528083333333,1021,0x81,0x00
58.809581333333334,1022,0xA5,0x00
58.809586500000002,1023,0x80,0x00
58.809596416666665,1024,0x82,0x00
58.809601666666666,1025,0x01,0x00
58.809614000000003,1026,0x96,0x00
58.809997333333335,1027,0x00,0x8C
58.810004416666665,1028,0x48,0xFF
58.810159749999997,1029,0x00,0x88
58.810166833333334,1030,0x48,0xFF
58.810322166666666,1031,0x00,0x88
58.810329083333336,1032,0xA7,0xFF
58.810484500000001,1033,0x00,0x88
58.810491583333331,1034,0x41,0xFF
58.810646916666670,1035,0x00,0x88
58.810654416666665,1036,0xE3,0xFF
58.810809333333331,1037,0x00,0x80
58.810818500000003,1038,0x40,0xFF
58.810971833333333,1039,0x00,0x18
58.810980916666665,1040,0x40,0xFF
58.811134250000002,1041,0x00,0x18
58.811143166666668,1042,0xA0,0xFF
58.811296499999997,1043,0x00,0x8C
58.811305583333336,1044,0xA4,0xFF
58.811458916666666,1045,0x00,0x8C
58.811466166666669,1046,0xA4,0xFF
58.811621333333335,1047,0x00,0x88
58.811628666666664,1048,0xE1,0xFE
58.811783749999996,1049,0x00,0x80
58.811790750000000,1050,0x48,0xFF
58.811946166666665,1051,0x00,0x80
58.811952833333336,1052,0x01,0xFF
58.811958083333330,1053,0xEF,0xFF
58.814549666666665,1054,0xA5,0x00
58.814554833333332,1055,0x80,0x00
73.673075999999995,1056,0x00,0x8E
73.673082166666660,1057,0xB0,0xFF
73.673087416666661,1057,0x00,0x05
73.673237833333332,1058,0x00,0x8B
73.673243999999997,1059,0xB0,0xFF
73.673249249999998,1059,0x00,0x02
73.673400916666665,1060,0x00,0x1C
73.673406999999997,1061,0xB0,0xFF
73.673412249999998,1061,0x00,0x03
73.673562750000002,1062,0x00,0x1C
73.673568833333334,1063,0xB0,0xFF
73.673574083333335,1063,0x00,0x40
73.673725166666671,1064,0x00,0x1C
73.673731250000003,1065,0xB0,0xFF
73.673736500000004,1065,0x00,0x99
73.673888000000005,1066,0x00,0x8B
73.673894166666670,1067,0xB0,0xFF
73.673899500000005,1067,0x00,0x18
73.674051333333338,1068,0x00,0x0F
73.674057416666670,1069,0xB0,0xFF
73.674062666666671,1069,0x00,0x7E
73.674212999999995,1070,0x00,0x1F
73.674219083333327,1071,0xB0,0xFF
73.674224333333328,1071,0x00,0x78
73.674234833333330,1072,0x01,0x00
73.674287916666671,1073,0xC2,0x00
73.674293166666672,1074,0x92,0x00
73.674302916666662,1075,0xA4,0x00
73.674308166666663,1076,0x93,0x00
73.674320583333326,1077,0x83,0x00
73.674712416666665,1078,0x00,0x18
73.674719249999995,1079,0xE0,0xFE
73.674874666666668,1080,0x00,0x8E
73.674881749999997,1081,0x48,0xFF
73.675037000000003,1082,0x00,0x8E
73.675044000000000,1083,0xE0,0xFE
73.675199416666672,1084,0x00,0x8E
73.675206500000002,1085,0x41,0xFF
73.675361833333326,1086,0x00,0x8C
73.675369333333336,1087,0xE3,0xFF
73.675524333333328,1088,0x00,0x80
73.675533500000000,1089,0x40,0xFF
73.675686666666664,1090,0x00,0x80
73.675695833333336,1091,0x40,0xFF
73.675849083333333,1092,0x00,0x8E
73.675858166666671,1093,0xA0,0xFF
73.676011583333334,1094,0x00,0x18
73.676020500000007,1095,0xA4,0xFF
73.676173916666670,1096,0x00,0x8C
73.676181166666666,1097,0xE8,0xFF
73.676336250000006,1098,0x00,0x8C
73.676343583333335,1099,0xEA,0xFF
73.676498666666660,1100,0x00,0x8C
73.676505666666671,1101,0x48,0xFF
73.676661249999995,1102,0x00,0x18
73.676667666666660,1103,0x80,0xFF
73.676673083333327,1104,0xEF,0xFF
73.679264416666669,1105,0x82,0x00
73.679269500000004,1106,0x92,0x00
88.069621166666664,1107,0x00,0x88
88.069627333333329,1108,0xB0,0xFF
88.069632583333330,1108,0x00,0x05
88.069783749999999,1109,0x00,0x88
88.069789916666664,1110,0xB0,0xFF
88.069795166666665,1110,0x00,0x02
88.069947499999998,1111,0x00,0x8D
88.069953749999996,1112,0xB0,0xFF
88.069958999999997,1112,0x00,0x03
88.070107916666672,1113,0x00,0x1F
88.070114000000004,1114,0xB0,0xFF
88.070119250000005,1114,0x00,0x40
88.070270249999993,1115,0x00,0x1E
88.070276333333339,1116,0xB0,0xFF
88.070281583333340,1116,0x00,0x99
88.070432666666662,1117,0x00,0x1F
88.070438749999994,1118,0xB0,0xFF
88.070443999999995,1118,0x00,0x18
88.070594916666664,1119,0x00,0x8F
88.070601166666663,1120,0xB0,0xFF
88.070606416666664,1120,0x00,0x7E
88.070758166666664,1121,0x00,0x8B
88.070764333333329,1122,0xB0,0xFF
88.070769583333330,1122,0x00,0x78
88.070779999999999,1123,0x92,0x00
88.070833250000007,1124,0xA5,0x00
88.070838416666660,1125,0x91,0x00
88.070848166666664,1126,0xC2,0x00
88.070853416666665,1127,0x81,0x00
88.070865916666662,1128,0x97,0x00
88.071254999999994,1129,0x00,0x18
88.071261833333338,1130,0xEF,0xFF
88.071417249999996,1131,0x00,0x80
88.071424166666674,1132,0xEF,0xFF
88.071579749999998,1133,0x00,0x18
88.071586583333328,1134,0xE0,0xFE
88.071742000000000,1135,0x00,0x8C
88.071748999999997,1136,0xE3,0xFE
88.071904500000002,1137,0x00,0x88
88.071911999999998,1138,0xE3,0xFF
88.072066916666671,1139,0x00,0x80
88.072075999999996,1140,0xE1,0xFE
88.072229250000007,1141,0x00,0x88
88.072238333333331,1142,0xE1,0xFE
88.072391833333327,1143,0x00,0x18
88.072400750000000,1144,0xA0,0xFF
88.072554166666663,1145,0x00,0x18
88.072563250000002,1146,0x48,0xFF
88.072716499999999,1147,0x00,0x8C
88.072723749999994,1148,0xA4,0xFF
88.072878833333334,1149,0x00,0x8C
88.072886166666663,1150,0xEA,0xFF
88.073041250000003,1151,0x00,0x8C
88.073048166666666,1152,0xE0,0xFE
88.073203750000005,1153,0x00,0x80
88.073210416666669,1154,0x01,0xFF
88.073215666666670,1155,0xEF,0xFF
88.075807083333331,1156,0xA5,0x00
88.075812249999998,1157,0x80,0x00
97.384128416666670,1158,0x00,0x1F
97.384134500000002,1159,0xB0,0xFF
97.384139750000003,1159,0x00,0x05
97.384290916666671,1160,0x00,0x8F
97.384297166666670,1161,0xB0,0xFF
97.384302416666671,1161,0x00,0x02
97.384454083333338,1162,0x00,0x1C
97.384460166666670,1163,0xB0,0xFF
97.384465416666671,1163,0x00,0x03
97.384615749999995,1164,0x00,0x8C
97.384621916666660,1165,0xB0,0xFF
97.384627166666661,1165,0x00,0x40
97.384777333333332,1166,0x00,0x8B
97.384783499999998,1167,0xB0,0xFF
97.384788833333332,1167,0x00,0x99
97.384940583333332,1168,0x00,0x8E
97.384946749999997,1169,0xB0,0xFF
97.384951999999998,1169,0x00,0x18
97.385103083333334,1170,0x00,0x1F
97.385109166666666,1171,0xB0,0xFF
97.385114416666667,1171,0x00,0x7E
97.385264666666671,1172,0x00,0x1F
97.385270750000004,1173,0xB0,0xFF
97.385276000000005,1173,0x00,0x78
97.385286500000007,1174,0x01,0x00
97.385339750000000,1175,0x82,0x00
97.385344833333335,1176,0x92,0x00
97.385354583333338,1177,0xA5,0x00
97.385359833333339,1178,0x92,0x00
97.385372250000003,1179,0x83,0x00
97.385750833333333,1180,0x00,0x8C
97.385757749999996,1181,0xA7,0xFF
97.385913250000002,1182,0x00,0x80
97.385920166666665,1183,0xEF,0xFF
97.386075750000003,1184,0x00,0x18
97.386082583333334,1185,0xEF,0xFF
97.386238166666672,1186,0x00,0x18
97.386245000000002,1187,0xE3,0xFE
97.386400499999993,1188,0x00,0x8C
97.386408000000003,1189,0xE3,0xFF
97.386562833333329,1190,0x00,0x8C
97.386571916666668,1191,0xE1,0xFF
97.386725249999998,1192,0x00,0x8C
97.386734333333337,1193,0xE1,0xFE
97.386887666666667,1194,0x00,0x80
97.386896750000005,1195,0xE0,0xFE
97.387050083333335,1196,0x00,0x80
97.387059249999993,1197,0x48,0xFF
97.387212583333337,1198,0x00,0x18
97.387219833333333,1199,0x4D,0xFF
97.387374916666673,1200,0x00,0x8C
97.387382250000002,1201,0xEA,0xFF
97.387537333333327,1202,0x00,0x8C
97.387544333333338,1203,0x48,0xFF
97.387699666666663,1204,0x00,0x8C
97.387706249999994,1205,0x92,0xFF
97.387711749999994,1206,0x48,0xFF
97.390302916666670,1207,0xC1,0x00
97.390308166666671,1208,0x92,0x00
105.279953500000005,1209,0x00,0x80
105.279959750000003,1210,0xB0,0xFF
105.279965000000004,1210,0x00,0x8F
105.280114583333329,1211,0x00,0x80
105.280120749999995,1212,0xB0,0xFF
105.280125999999996,1212,0x00,0x82
105.280270750000000,1213,0x00,0x80
105.280276999999998,1214,0xB0,0xFF
105.280282249999999,1214,0x00,0x75
105.280430999999993,1215,0x00,0x88
105.280437166666673,1216,0xB0,0xFF
105.280442416666673,1216,0x00,0x8F
105.280591916666665,1217,0x00,0x80
105.280598166666664,1218,0xB0,0xFF
105.280603416666665,1218,0x00,0x07
105.280755916666664,1219,0x00,0x04
105.280761999999996,1220,0xB0,0xFF
105.280767249999997,1220,0x00,0x89
105.280914749999994,1221,0x00,0x80
105.280920916666673,1222,0xB0,0xFF
105.280926249999993,1222,0x00,0x3C
105.281077333333329,1223,0x00,0x00
105.281083416666661,1224,0xB0,0xFF
105.281088666666662,1224,0x00,0xBE
105.281233166666667,1225,0x00,0x80
105.281239416666665,1226,0xB0,0xFF
105.281244666666666,1226,0x00,0xB3
105.281389416666670,1227,0x00,0x88
105.281395583333335,1228,0xB0,0xFF
105.281400833333336,1228,0x00,0x76
105.281554583333332,1229,0x00,0x80
105.281560833333330,1230,0xB0,0xFF
105.281566083333331,1230,0x00,0xD9
105.281706499999999,1231,0x00,0x00
105.281712583333331,1232,0xB0,0xFF
105.281717833333332,1232,0x00,0x4A
105.281868750000001,1233,0x00,0x80
105.281874999999999,1234,0xB0,0xFF
105.281880250000000,1234,0x00,0xC3
105.282033416666664,1235,0x00,0x80
105.282039666666662,1236,0xB0,0xFF
105.282044916666663,1236,0x00,0x5D
105.282195750000000,1237,0x00,0x80
105.282201999999998,1238,0xB0,0xFF
105.282207249999999,1238,0x00,0x7D
105.282217833333334,1239,0x81,0x00
105.282270083333330,1240,0xC2,0x00
105.282275416666664,1241,0x01,0x00
105.282351916666670,1242,0x00,0x00
105.282358000000002,1243,0xB0,0xFF
105.282363250000003,1243,0x00,0xAF
105.282514333333339,1244,0x00,0x00
105.282520416666671,1245,0xB0,0xFF
105.282525666666672,1245,0x00,0x76
105.282678916666669,1246,0x00,0x00
105.282685000000001,1247,0xB0,0xFF
105.282690250000002,1247,0x00,0x4A
105.282837000000001,1248,0x00,0x80
105.282843249999999,1249,0xB0,0xFF
105.282848500000000,1249,0x00,0x1B
105.282993916666669,1250,0x00,0x04
105.283000000000001,1251,0xB0,0xFF
105.283005250000002,1251,0x00,0x21
105.283155416666673,1252,0x00,0x80
105.283161666666672,1253,0xB0,0xFF
105.283166916666673,1253,0x00,0x43
105.283324250000007,1254,0x00,0x80
105.283330416666672,1255,0xB0,0xFF
105.283335666666673,1255,0x00,0x02
105.283480249999997,1256,0x00,0x80
105.283486416666662,1257,0xB0,0xFF
105.283491666666663,1257,0x00,0x0E
105.283642666666665,1258,0x00,0x80
105.283648833333331,1259,0xB0,0xFF
105.283654083333332,1259,0x00,0x88
105.283803000000006,1260,0x00,0x80
105.283809166666671,1261,0xB0,0xFF
105.283814416666672,1261,0x00,0x2D
105.283961250000004,1262,0x00,0x80
105.283967500000003,1263,0xB0,0xFF
105.283972750000004,1263,0x00,0xF0
105.284119416666670,1264,0x00,0x80
105.284125583333335,1265,0xB0,0xFF
105.284130833333336,1265,0x00,0x0E
105.284281833333338,1266,0x00,0x80
105.284288000000004,1267,0xB0,0xFF
105.284293250000005,1267,0x00,0x69
105.284450500000005,1268,0x00,0x80
105.284456666666671,1269,0xB0,0xFF
105.284461916666672,1269,0x00,0x17
105.284616999999997,1270,0x00,0x80
105.284623249999996,1271,0xB0,0xFF
105.284628499999997,1271,0x00,0xBA
105.284639083333332,1272,0x92,0x00
105.284656499999997,1273,0xA5,0x00
105.284661666666665,1274,0x90,0x00
105.284775249999996,1275,0x00,0x80
105.284781416666661,1276,0xB0,0xFF
105.284786666666662,1276,0x00,0x4F
105.284942000000001,1277,0x00,0x00
105.284948083333333,1278,0xB0,0xFF
105.284953333333334,1278,0x00,0x53
105.285106416666665,1279,0x00,0x80
105.285112583333330,1280,0xB0,0xFF
105.285117833333331,1280,0x00,0x48
105.285266083333340,1281,0x00,0x88
105.285272250000006,1282,0xB0,0xFF
105.285277500000007,1282,0x00,0x82
105.285428583333328,1283,0x00,0x04
105.285434666666660,1284,0xB0,0xFF
105.285439916666661,1284,0x00,0xC2
105.285590833333330,1285,0x00,0x88
105.285596999999996,1286,0xB0,0xFF
105.285602249999997,1286,0x00,0x17
105.285754666666662,1287,0x00,0x80
105.285760833333327,1288,0xB0,0xFF
105.285766083333328,1288,0x00,0xC9
105.285910166666667,1289,0x00,0x04
105.285916250000000,1290,0xB0,0xFF
105.285921500000001,1290,0x00,0x12
105.286070249999995,1291,0x00,0x84
105.286076499999993,1292,0xB0,0xFF
105.286081749999994,1292,0x00,0xA2
105.286241083333337,1293,0x00,0x80
105.286247333333336,1294,0xB0,0xFF
105.286252583333336,1294,0x00,0xBA
105.286397249999993,1295,0x00,0x88
105.286403500000006,1296,0xB0,0xFF
105.286408750000007,1296,0x00,0x33
105.286551250000002,1297,0x00,0x84
105.286557500000001,1298,0xB0,0xFF
105.286562750000002,1298,0x00,0x87
105.286707250000006,1299,0x00,0x84
105.286713416666672,1300,0xB0,0xFF
105.286718666666673,1300,0x00,0xDE
105.286862833333331,1301,0x00,0x04
105.286868916666663,1302,0xB0,0xFF
105.286874166666664,1302,0x00,0xD2
105.287024500000001,1303,0x00,0x80
105.287030666666666,1304,0xB0,0xFF
105.287035916666667,1304,0x00,0x21
105.287046583333336,1305,0x93,0x00
105.287064083333334,1306,0x82,0x00
105.287069166666669,1307,0x92,0x00
105.287187000000003,1308,0x00,0x00
105.287193083333335,1309,0xB0,0xFF
105.287198333333336,1309,0x00,0xE6
105.287351416666667,1310,0x00,0x00
105.287357499999999,1311,0xB0,0xFF
105.287362750000000,1311,0x00,0x7B
105.287513666666669,1312,0x00,0x82
105.287519916666668,1313,0xB0,0xFF
105.287525166666668,1313,0x00,0x27
105.287671916666667,1314,0x00,0x80
105.287678083333333,1315,0xB0,0xFF
105.287683333333334,1315,0x00,0x9C
105.287834333333336,1316,0x00,0x80
105.287840500000001,1317,0xB0,0xFF
105.287845750000002,1317,0x00,0x5B
105.287994833333329,1318,0x00,0x00
105.288000916666661,1319,0xB0,0xFF
105.288006166666662,1319,0x00,0x4E
105.288157166666664,1320,0x00,0x08
105.288163249999997,1321,0xB0,0xFF
105.288168499999998,1321,0x00,0xE6
105.288320083333332,1322,0x00,0x84
105.288326249999997,1323,0xB0,0xFF
105.288331499999998,1323,0x00,0x44
105.288477749999998,1324,0x00,0x88
105.288483916666664,1325,0xB0,0xFF
105.288489166666665,1325,0x00,0xBE
105.288640083333334,1326,0x00,0x84
105.288646249999999,1327,0xB0,0xFF
105.288651500000000,1327,0x00,0x17
105.288798416666666,1328,0x00,0x08
105.288804499999998,1329,0xB0,0xFF
105.288809749999999,1329,0x00,0xBF
105.288966916666666,1330,0x00,0x82
105.288973166666665,1331,0xB0,0xFF
105.288978416666666,1331,0x00,0xFB
105.289125083333332,1332,0x00,0x82
105.289131333333330,1333,0xB0,0xFF
105.289136583333331,1333,0x00,0xC0
105.289287500000000,1334,0x00,0x84
105.289293666666666,1335,0xB0,0xFF
105.289298916666667,1335,0x00,0x3C
105.289451333333332,1336,0x00,0x84
105.289457583333331,1337,0xB0,0xFF
105.289462833333332,1337,0x00,0x58
105.289473416666667,1338,0x92,0x00
105.289486749999995,1339,0xA5,0x00
105.289491916666663,1340,0x80,0x00
105.289609499999997,1341,0x00,0x84
105.289615666666663,1342,0xB0,0xFF
105.289620916666664,1342,0x00,0x81
105.289776166666670,1343,0x00,0x80
105.289782333333335,1344,0xB0,0xFF
105.289787583333336,1344,0x00,0x28
105.289936666666662,1345,0x00,0x00
105.289942749999994,1346,0xB0,0xFF
105.289947999999995,1346,0x00,0x20
105.290100916666660,1347,0x00,0x80
105.290107083333339,1348,0xB0,0xFF
105.290112333333340,1348,0x00,0xEA
105.290261333333333,1349,0x00,0x82
105.290267583333332,1350,0xB0,0xFF
105.290272833333333,1350,0x00,0xF8
105.290432166666662,1351,0x00,0x80
105.290438333333327,1352,0xB0,0xFF
105.290443583333328,1352,0x00,0xAD
105.290596666666673,1353,0x00,0x00
105.290602750000005,1354,0xB0,0xFF
105.290608000000006,1354,0x00,0xB8
105.290752749999996,1355,0x00,0x82
105.290758999999994,1356,0xB0,0xFF
105.290764249999995,1356,0x00,0x04
105.290919416666668,1357,0x00,0x00
105.290925500000000,1358,0xB0,0xFF
105.290930750000001,1358,0x00,0x41
105.291086083333340,1359,0x00,0x00
105.291092166666672,1360,0xB0,0xFF
105.291097416666673,1360,0x00,0x23
105.291252666666665,1361,0x00,0x00
105.291258749999997,1362,0xB0,0xFF
105.291263999999998,1362,0x00,0x81
105.291421166666666,1363,0x00,0x80
105.291427333333331,1364,0xB0,0xFF
105.291432583333332,1364,0x00,0xA3
105.291583666666668,1365,0x00,0x00
105.291589750000000,1366,0xB0,0xFF
105.291595000000001,1366,0x00,0xB7
105.291752333333335,1367,0x00,0x84
105.291758500000000,1368,0xB0,0xFF
105.291763750000001,1368,0x00,0x28
105.291914916666670,1369,0x00,0x00
105.291921000000002,1370,0xB0,0xFF
105.291926250000003,1370,0x00,0x6C
105.291937000000004,1371,0x01,0x00
105.291950333333332,1372,0x82,0x00
105.291955416666667,1373,0x92,0x00
105.292075083333330,1374,0x00,0x00
105.292081166666662,1375,0xB0,0xFF
105.292086416666663,1375,0x00,0x16
105.292231166666667,1376,0x00,0x84
105.292237333333333,1377,0xB0,0xFF
105.292242583333334,1377,0x00,0x40
105.292393583333336,1378,0x00,0x88
105.292399750000001,1379,0xB0,0xFF
105.292405000000002,1379,0x00,0x6C
105.292553749999996,1380,0x00,0x86
105.292559999999995,1381,0xB0,0xFF
105.292565249999996,1381,0x00,0xAB
105.292716916666663,1382,0x00,0x82
105.292723166666661,1383,0xB0,0xFF
105.292728416666662,1383,0x00,0x6D
105.292872416666668,1384,0x00,0x80
105.292878583333334,1385,0xB0,0xFF
105.292883833333335,1385,0x00,0x5B
105.293034916666670,1386,0x00,0x00
105.293041000000002,1387,0xB0,0xFF
105.293046250000003,1387,0x00,0x4C
105.293190749999994,1388,0x00,0x84
105.293197000000006,1389,0xB0,0xFF
105.293202249999993,1389,0x00,0xA5
105.293351166666667,1390,0x00,0x84
105.293357333333333,1391,0xB0,0xFF
105.293362583333334,1391,0x00,0x7C
105.293509999999998,1392,0x00,0x84
105.293516166666663,1393,0xB0,0xFF
105.293521416666664,1393,0x00,0x59
105.293668333333329,1394,0x00,0x00
105.293674416666661,1395,0xB0,0xFF
105.293679666666662,1395,0x00,0xB0
105.293828666666670,1396,0x00,0x00
105.293834750000002,1397,0xB0,0xFF
105.293840000000003,1397,0x00,0x54
105.293988833333330,1398,0x00,0x84
105.293994999999995,1399,0xB0,0xFF
105.294000249999996,1399,0x00,0x9D
105.294145000000000,1400,0x00,0x80
105.294151166666666,1401,0xB0,0xFF
105.294156416666667,1401,0x00,0x17
105.294305166666661,1402,0x00,0x82
105.294311416666673,1403,0xB0,0xFF
105.294316666666660,1403,0x00,0x3C
105.294327249999995,1404,0x81,0x00
105.294340583333337,1405,0xC2,0x00
105.294345916666671,1406,0x01,0x00
105.294459333333336,1407,0x00,0x00
105.294465416666668,1408,0xB0,0xFF
105.294470666666669,1408,0x00,0x73
105.294615416666673,1409,0x00,0x84
105.294621583333338,1410,0xB0,0xFF
105.294626916666672,1410,0x00,0x7F
105.294776416666664,1411,0x00,0x80
105.294782583333330,1412,0xB0,0xFF
105.294787833333331,1412,0x00,0xDD
105.294930416666674,1413,0x00,0x84
105.294936583333339,1414,0xB0,0xFF
105.294941833333340,1414,0x00,0x65
105.295093416666660,1415,0x00,0x82
105.295099666666673,1416,0xB0,0xFF
105.295104916666673,1416,0x00,0x96
105.295250333333328,1417,0x00,0x04
105.295256416666660,1418,0xB0,0xFF
105.295261666666661,1418,0x00,0x16
105.295414083333327,1419,0x00,0x88
105.295420250000006,1420,0xB0,0xFF
105.295425499999993,1420,0x00,0x20
105.295577333333327,1421,0x00,0x04
105.295583416666673,1422,0xB0,0xFF
105.295588666666660,1422,0x00,0x17
105.295738249999999,1423,0x00,0x80
105.295744416666665,1424,0xB0,0xFF
105.295749666666666,1424,0x00,0x1E
105.295894166666670,1425,0x00,0x82
105.295900416666669,1426,0xB0,0xFF
105.295905666666670,1426,0x00,0x47
105.296048333333331,1427,0x00,0x00
105.296054416666664,1428,0xB0,0xFF
105.296059666666665,1428,0x00,0x0F
105.296205083333334,1429,0x00,0x88
105.296211249999999,1430,0xB0,0xFF
105.296216500000000,1430,0x00,0xEB
105.296366000000006,1431,0x00,0x82
105.296372250000005,1432,0xB0,0xFF
105.296377500000006,1432,0x00,0xE4
105.296534833333340,1433,0x00,0x80
105.296541083333338,1434,0xB0,0xFF
105.296546333333339,1434,0x00,0xAE
105.296697333333327,1435,0x00,0x00
105.296703416666674,1436,0xB0,0xFF
105.296708666666660,1436,0x00,0x66
105.296719416666662,1437,0x01,0x00
105.296732583333338,1438,0xC1,0x00
105.296737833333339,1439,0x92,0x00
105.296857416666668,1440,0x00,0x84
105.296863583333334,1441,0xB0,0xFF
105.296868916666668,1441,0x00,0xDD
105.297024083333326,1442,0x00,0x84
105.297030250000006,1443,0xB0,0xFF
105.297035500000007,1443,0x00,0x19
105.297192916666660,1444,0x00,0x00
105.297199000000006,1445,0xB0,0xFF
105.297204249999993,1445,0x00,0x31
105.297347416666668,1446,0x00,0x82
105.297353666666666,1447,0xB0,0xFF
105.297358916666667,1447,0x00,0xD5
105.297509833333336,1448,0x00,0x82
105.297516083333335,1449,0xB0,0xFF
105.297521333333336,1449,0x00,0xD5
105.297674416666666,1450,0x00,0x82
105.297680666666665,1451,0xB0,0xFF
105.297685916666666,1451,0x00,0x2F
105.297832666666665,1452,0x00,0x84
105.297838833333330,1453,0xB0,0xFF
105.297844083333331,1453,0x00,0xCE
105.297993000000005,1454,0x00,0x00
105.297999083333337,1455,0xB0,0xFF
105.298004333333338,1455,0x00,0xF6
105.298151000000004,1456,0x00,0x82
105.298157250000003,1457,0xB0,0xFF
105.298162500000004,1457,0x00,0x01
105.298313500000006,1458,0x00,0x84
105.298319666666671,1459,0xB0,0xFF
105.298324916666672,1459,0x00,0x19
105.298475833333328,1460,0x00,0x84
105.298482000000007,1461,0xB0,0xFF
105.298487249999994,1461,0x00,0x3E
105.298636833333333,1462,0x00,0x82
105.298643083333332,1463,0xB0,0xFF
105.298648333333333,1463,0x00,0x7E
105.298796416666661,1464,0x00,0x82
105.298802666666660,1465,0xB0,0xFF
105.298807916666661,1465,0x00,0x4C
105.298959666666661,1466,0x00,0x84
105.298965833333327,1467,0xB0,0xFF
105.298971083333328,1467,0x00,0xD7
105.299120000000002,1468,0x00,0x00
105.299126083333334,1469,0xB0,0xFF
105.299131333333335,1469,0x00,0x19
105.299142083333336,1470,0x01,0x00
105.299155416666665,1471,0x82,0x00
105.299160499999999,1472,0x92,0x00
105.299284499999999,1473,0x00,0x80
105.299290666666664,1474,0xB0,0xFF
105.299295916666665,1474,0x00,0x85
105.299440000000004,1475,0x00,0x04
105.299446083333336,1476,0xB0,0xFF
105.299451333333337,1476,0x00,0xAC
105.299603833333336,1477,0x00,0x00
105.299609916666668,1478,0xB0,0xFF
105.299615166666669,1478,0x00,0x68
105.299771666666672,1479,0x00,0x82
105.299777916666670,1480,0xB0,0xFF
105.299783166666671,1480,0x00,0x64
105.299938249999997,1481,0x00,0x82
105.299944499999995,1482,0xB0,0xFF
105.299949749999996,1482,0x00,0x51
105.300096499999995,1483,0x00,0x84
105.300102666666660,1484,0xB0,0xFF
105.300107916666661,1484,0x00,0xCC
105.300260916666673,1485,0x00,0x80
105.300267083333338,1486,0xB0,0xFF
105.300272333333339,1486,0x00,0x73
105.300417083333329,1487,0x00,0x82
105.300423333333327,1488,0xB0,0xFF
105.300428583333328,1488,0x00,0xDF
105.300575249999994,1489,0x00,0x84
105.300581500000007,1490,0xB0,0xFF
105.300586749999994,1490,0x00,0xFB
105.300733500000007,1491,0x00,0x80
105.300739750000005,1492,0xB0,0xFF
105.300745000000006,1492,0x00,0x28
105.300887500000002,1493,0x00,0x84
105.300893666666667,1494,0xB0,0xFF
105.300898916666668,1494,0x00,0x70
105.301054083333327,1495,0x00,0x84
105.301060250000006,1496,0xB0,0xFF
105.301065583333340,1496,0x00,0xD4
105.301210083333331,1497,0x00,0x82
105.301216333333329,1498,0xB0,0xFF
105.301221583333330,1498,0x00,0x39
105.301380916666673,1499,0x00,0x80
105.301387083333339,1500,0xB0,0xFF
105.301392333333339,1500,0x00,0xB7
105.301537083333329,1501,0x00,0x82
105.301543333333328,1502,0xB0,0xFF
105.301548583333329,1502,0x00,0x03
105.301559166666664,1503,0x81,0x00
105.301572500000006,1504,0xC2,0x00
105.301577833333340,1505,0x01,0x00
105.301696750000005,1506,0x00,0x84
105.301703000000003,1507,0xB0,0xFF
105.301708250000004,1507,0x00,0x0F
105.301862666666665,1508,0x00,0x00
105.301868749999997,1509,0xB0,0xFF
105.301873999999998,1509,0x00,0xF3
105.302018666666669,1510,0x00,0x82
105.302024916666667,1511,0xB0,0xFF
105.302030166666668,1511,0x00,0xB7
105.302185333333327,1512,0x00,0x82
105.302191583333340,1513,0xB0,0xFF
105.302196833333326,1513,0x00,0xC2
105.302341333333331,1514,0x00,0x80
105.302347499999996,1515,0xB0,0xFF
105.302352749999997,1515,0x00,0x20
105.302501833333338,1516,0x00,0x00
105.302507916666670,1517,0xB0,0xFF
105.302513166666671,1517,0x00,0xFB
105.302661916666665,1518,0x00,0x84
105.302668083333330,1519,0xB0,0xFF
105.302673416666664,1519,0x00,0xAF
105.302822916666670,1520,0x00,0x82
105.302829166666669,1521,0xB0,0xFF
105.302834416666670,1521,0x00,0xCB
105.302981916666667,1522,0x00,0x84
105.302988083333332,1523,0xB0,0xFF
105.302993333333333,1523,0x00,0x0A
105.303144500000002,1524,0x00,0x04
105.303150583333334,1525,0xB0,0xFF
105.303155833333335,1525,0x00,0x0B
105.303304499999996,1526,0x00,0x80
105.303310749999994,1527,0xB0,0xFF
105.303315999999995,1527,0x00,0x1A
105.303469250000006,1528,0x00,0x00
105.303475333333338,1529,0xB0,0xFF
105.303480583333339,1529,0x00,0x36
105.303631499999995,1530,0x00,0x82
105.303637749999993,1531,0xB0,0xFF
105.303642999999994,1531,0x00,0x57
105.303789750000007,1532,0x00,0x8C
105.303795916666672,1533,0xB0,0xFF
105.303801166666673,1533,0x00,0xE5
105.303948083333339,1534,0x00,0x00
105.303954166666671,1535,0xB0,0xFF
105.303959416666672,1535,0x00,0x20
105.303970166666673,1536,0x01,0x00
105.303983333333335,1537,0xC2,0x00
105.303988583333336,1538,0x92,0x00
105.304099916666672,1539,0x00,0x00
105.304106000000004,1540,0xB0,0xFF
105.304111250000005,1540,0x00,0xFE
105.304257916666671,1541,0x00,0x82
105.304264166666670,1542,0xB0,0xFF
105.304269416666671,1542,0x00,0x6E
105.304420416666673,1543,0x00,0x80
105.304426583333338,1544,0xB0,0xFF
105.304431833333339,1544,0x00,0x8D
105.304584916666670,1545,0x00,0x82
105.304591166666668,1546,0xB0,0xFF
105.304596416666669,1546,0x00,0x0F
105.304749416666667,1547,0x00,0x80
105.304755583333332,1548,0xB0,0xFF
105.304760833333333,1548,0x00,0x35
105.304914583333328,1549,0x00,0x80
105.304920749999994,1550,0xB0,0xFF
105.304925999999995,1550,0x00,0xEF
105.305072749999994,1551,0x00,0x82
105.305079000000006,1552,0xB0,0xFF
105.305084249999993,1552,0x00,0x82
105.305233166666667,1553,0x00,0x8C
105.305239333333333,1554,0xB0,0xFF
105.305244666666667,1554,0x00,0x62
105.305397583333331,1555,0x00,0x84
105.305403749999996,1556,0xB0,0xFF
105.305408999999997,1556,0x00,0xBD
105.305558000000005,1557,0x00,0x88
105.305564166666670,1558,0xB0,0xFF
105.305569416666671,1558,0x00,0xB1
105.305721000000005,1559,0x00,0x8C
105.305727250000004,1560,0xB0,0xFF
105.305732500000005,1560,0x00,0x5C
105.305883333333327,1561,0x00,0x82
105.305889583333339,1562,0xB0,0xFF
105.305894833333326,1562,0x00,0x0E
105.306041583333339,1563,0x00,0x80
105.306047750000005,1564,0xB0,0xFF
105.306053000000006,1564,0x00,0x9D
105.306206333333336,1565,0x00,0x00
105.306212416666668,1566,0xB0,0xFF
105.306217666666669,1566,0x00,0x32
105.306368583333338,1567,0x00,0x80
105.306374750000003,1568,0xB0,0xFF
105.306380000000004,1568,0x00,0x35
105.306390666666672,1569,0x93,0x00
105.306404083333334,1570,0x82,0x00
105.306409166666668,1571,0x91,0x00
105.306524583333328,1572,0x00,0x84
105.306530749999993,1573,0xB0,0xFF
105.306535999999994,1573,0x00,0xE0
105.306680916666664,1574,0x00,0x00
105.306686999999997,1575,0xB0,0xFF
105.306692249999998,1575,0x00,0xE4
105.306838999999997,1576,0x00,0x84
105.306845166666662,1577,0xB0,0xFF
105.306850499999996,1577,0x00,0xEF
105.306995000000001,1578,0x00,0x82
105.307001249999999,1579,0xB0,0xFF
105.307006500000000,1579,0x00,0xCC
105.307159749999997,1580,0x00,0x00
105.307165833333329,1581,0xB0,0xFF
105.307171083333330,1581,0x00,0x91
105.307321999999999,1582,0x00,0x82
105.307328249999998,1583,0xB0,0xFF
105.307333499999999,1583,0x00,0x7C
105.307482166666674,1584,0x00,0x84
105.307488416666672,1585,0xB0,0xFF
105.307493666666673,1585,0x00,0x83
105.307642666666666,1586,0x00,0x80
105.307648833333332,1587,0xB0,0xFF
105.307654083333333,1587,0x00,0xB0
105.307806999999997,1588,0x00,0x88
105.307813166666662,1589,0xB0,0xFF
105.307818416666663,1589,0x00,0xFA
105.307966750000006,1590,0x00,0x00
105.307972833333338,1591,0xB0,0xFF
105.307978083333339,1591,0x00,0xF3
105.308122916666662,1592,0x00,0x08
105.308128999999994,1593,0xB0,0xFF
105.308134249999995,1593,0x00,0x1F
105.308280249999996,1594,0x00,0x84
105.308286416666661,1595,0xB0,0xFF
105.308291666666662,1595,0x00,0x4D
105.308443416666663,1596,0x00,0x80
105.308449583333328,1597,0xB0,0xFF
105.308454833333329,1597,0x00,0x75
105.308600833333330,1598,0x00,0x82
105.308607083333328,1599,0xB0,0xFF
105.308612333333329,1599,0x00,0x9E
105.308763333333332,1600,0x00,0x00
105.308769416666664,1601,0xB0,0xFF
105.308774666666665,1601,0x00,0x73
105.308785416666666,1602,0x01,0x00
105.308798583333328,1603,0xC2,0x00
105.308803833333329,1604,0x92,0x00
105.308921416666664,1605,0x00,0x84
105.308927583333329,1606,0xB0,0xFF
105.308932833333330,1606,0x00,0x12
105.309079749999995,1607,0x00,0x0C
105.309085833333327,1608,0xB0,0xFF
105.309091083333328,1608,0x00,0x4B
105.309243499999994,1609,0x00,0x80
105.309249666666673,1610,0xB0,0xFF
105.309254916666660,1610,0x00,0x2D
105.309401750000006,1611,0x00,0x00
105.309407833333339,1612,0xB0,0xFF
105.309413083333340,1612,0x00,0xAD
105.309555666666668,1613,0x00,0x80
105.309561833333333,1614,0xB0,0xFF
105.309567083333334,1614,0x00,0xEA
105.309722249999993,1615,0x00,0x80
105.309728416666673,1616,0xB0,0xFF
105.309733666666673,1616,0x00,0x2B
105.309880416666672,1617,0x00,0x80
105.309886666666671,1618,0xB0,0xFF
105.309891916666672,1618,0x00,0xAF
105.310045166666669,1619,0x00,0x08
105.310051250000001,1620,0xB0,0xFF
105.310056500000002,1620,0x00,0xDA
105.310205249999996,1621,0x00,0x8C
105.310211499999994,1622,0xB0,0xFF
105.310216749999995,1622,0x00,0xFF
105.310367666666664,1623,0x00,0x84
105.310373833333330,1624,0xB0,0xFF
105.310379083333331,1624,0x00,0xE5
105.310531416666663,1625,0x00,0x82
105.310537666666661,1626,0xB0,0xFF
105.310542916666662,1626,0x00,0x49
105.310693250000000,1627,0x00,0x80
105.310699499999998,1628,0xB0,0xFF
105.310704749999999,1628,0x00,0x98
105.310857083333332,1629,0x00,0x80
105.310863249999997,1630,0xB0,0xFF
105.310868499999998,1630,0x00,0xD3
105.311013833333334,1631,0x00,0x8C
105.311019999999999,1632,0xB0,0xFF
105.311025333333333,1632,0x00,0xA0
105.311172083333332,1633,0x00,0x82
105.311178333333331,1634,0xB0,0xFF
105.311183583333332,1634,0x00,0x2F
105.311194166666667,1635,0x81,0x00
105.311207499999995,1636,0xC2,0x00
105.311212833333329,1637,0x01,0x00
105.311338833333338,1638,0x00,0x00
105.311344916666670,1639,0xB0,0xFF
105.311350166666671,1639,0x00,0xE0
105.311494666666661,1640,0x00,0x84
105.311500833333326,1641,0xB0,0xFF
105.311506083333327,1641,0x00,0x71
105.311652249999995,1642,0x00,0x84
105.311658416666660,1643,0xB0,0xFF
105.311663749999994,1643,0x00,0x89
105.311812583333335,1644,0x00,0x00
105.311818666666667,1645,0xB0,0xFF
105.311823916666668,1645,0x00,0x06
105.311970666666667,1646,0x00,0x86
105.311976916666666,1647,0xB0,0xFF
105.311982166666667,1647,0x00,0x79
105.312133083333336,1648,0x00,0x84
105.312139250000001,1649,0xB0,0xFF
105.312144500000002,1649,0x00,0x30
105.312287083333331,1650,0x00,0x86
105.312293333333329,1651,0xB0,0xFF
105.312298583333330,1651,0x00,0x3A
105.312449416666666,1652,0x00,0x80
105.312455666666665,1653,0xB0,0xFF
105.312460916666666,1653,0x00,0x3B
105.312607749999998,1654,0x00,0x88
105.312613916666663,1655,0xB0,0xFF
105.312619166666664,1655,0x00,0x16
105.312770999999998,1656,0x00,0x00
105.312777083333330,1657,0xB0,0xFF
105.312782333333331,1657,0x00,0xEB
105.312933250000000,1658,0x00,0x80
105.312939499999999,1659,0xB0,0xFF
105.312944750000000,1659,0x00,0x90
105.313087416666662,1660,0x00,0x04
105.313093499999994,1661,0xB0,0xFF
105.313098749999995,1661,0x00,0x8D
105.313254499999999,1662,0x00,0x80
105.313260749999998,1663,0xB0,0xFF
105.313265999999999,1663,0x00,0xB7
105.313412666666665,1664,0x00,0x80
105.313418833333330,1665,0xB0,0xFF
105.313424166666664,1665,0x00,0x64
105.313585833333335,1666,0x00,0x00
105.313591916666667,1667,0xB0,0xFF
105.313597166666668,1667,0x00,0x8A
105.313607916666669,1668,0x01,0x00
105.313621249999997,1669,0x82,0x00
105.313626333333332,1670,0x92,0x00
105.313743916666667,1671,0x00,0x80
105.313750083333332,1672,0xB0,0xFF
105.313755416666666,1672,0x00,0x03
105.313900666666669,1673,0x00,0x80
105.313906916666667,1674,0xB0,0xFF
105.313912166666668,1674,0x00,0x5C
105.314060916666662,1675,0x00,0x80
105.314067083333327,1676,0xB0,0xFF
105.314072333333328,1676,0x00,0x64
105.314224249999995,1677,0x00,0x04
105.314230333333327,1678,0xB0,0xFF
105.314235583333328,1678,0x00,0xBB
105.314386499999998,1679,0x00,0x82
105.314392749999996,1680,0xB0,0xFF
105.314397999999997,1680,0x00,0xAA
105.314550916666661,1681,0x00,0x80
105.314557166666660,1682,0xB0,0xFF
105.314562416666661,1682,0x00,0xCC
105.314572749999996,1683,0x81,0x00
105.314585500000007,1684,0xC1,0x00
105.314590749999994,1685,0x92,0x00
105.314713333333330,1686,0x00,0x88
105.314719583333329,1687,0xB0,0xFF
105.314724833333329,1687,0x00,0xD7
105.314874333333336,1688,0x00,0x88
105.314880500000001,1689,0xB0,0xFF
105.314885750000002,1689,0x00,0xC9
105.315038166666668,1690,0x00,0x80
105.315044333333333,1691,0xB0,0xFF
105.315049583333334,1691,0x00,0xA6
105.315196333333333,1692,0x00,0x80
105.315202583333331,1693,0xB0,0xFF
105.315207833333332,1693,0x00,0xD7
105.315358833333335,1694,0x00,0x00
105.315364916666667,1695,0xB0,0xFF
105.315370166666668,1695,0x00,0x5F
105.315523333333331,1696,0x00,0x80
105.315529583333330,1697,0xB0,0xFF
105.315534833333331,1697,0x00,0xE6
105.315683500000006,1698,0x00,0x80
105.315689750000004,1699,0xB0,0xFF
105.315695000000005,1699,0x00,0xE3
105.315841750000004,1700,0x00,0x80
105.315847916666669,1701,0xB0,0xFF
105.315853166666670,1701,0x00,0x41
105.316008333333329,1702,0x00,0x88
105.316014499999994,1703,0xB0,0xFF
105.316019749999995,1703,0x00,0xD7
105.316175000000001,1704,0x00,0x88
105.316181166666667,1705,0xB0,0xFF
105.316186416666667,1705,0x00,0x6B
105.316331750000003,1706,0x00,0x80
105.316337916666669,1707,0xB0,0xFF
105.316343166666670,1707,0x00,0x72
105.316498333333328,1708,0x00,0x84
105.316504583333327,1709,0xB0,0xFF
105.316509833333328,1709,0x00,0xF2
105.316664916666667,1710,0x00,0x80
105.316671166666666,1711,0xB0,0xFF
105.316676416666667,1711,0x00,0xAC
105.316823166666666,1712,0x00,0x88
105.316829333333331,1713,0xB0,0xFF
105.316834583333332,1713,0x00,0x71
105.316986499999999,1714,0x00,0x08
105.316992583333331,1715,0xB0,0xFF
105.316997833333332,1715,0x00,0x68
105.317008583333333,1716,0x01,0x00
105.317021749999995,1717,0xC2,0x00
105.317026999999996,1718,0x92,0x00
105.317150749999996,1719,0x00,0x82
105.317156999999995,1720,0xB0,0xFF
105.317162249999996,1720,0x00,0x1E
105.317308999999995,1721,0x00,0x8C
105.317315166666660,1722,0xB0,0xFF
105.317320416666661,1722,0x00,0xA3
105.317472749999993,1723,0x00,0x82
105.317479000000006,1724,0xB0,0xFF
105.317484250000007,1724,0x00,0xC8
105.317626916666669,1725,0x00,0x00
105.317633000000001,1726,0xB0,0xFF
105.317638250000002,1726,0x00,0x17
105.317787166666662,1727,0x00,0x82
105.317793416666660,1728,0xB0,0xFF
105.317798666666661,1728,0x00,0xA0
105.317947333333336,1729,0x00,0x84
105.317953583333335,1730,0xB0,0xFF
105.317958833333336,1730,0x00,0xBE
105.318111999999999,1731,0x00,0x84
105.318118166666665,1732,0xB0,0xFF
105.318123416666666,1732,0x00,0x8C
105.318268083333336,1733,0x00,0x00
105.318274166666669,1734,0xB0,0xFF
105.318279416666670,1734,0x00,0x00
105.318426166666669,1735,0x00,0x84
105.318432333333334,1736,0xB0,0xFF
105.318437666666668,1736,0x00,0x52
105.318587166666660,1737,0x00,0x80
105.318593416666673,1738,0xB0,0xFF
105.318598666666674,1738,0x00,0x82
105.318742000000000,1739,0x00,0x80
105.318748166666666,1740,0xB0,0xFF
105.318753416666667,1740,0x00,0xDA
105.318904500000002,1741,0x00,0x00
105.318910583333334,1742,0xB0,0xFF
105.318915833333335,1742,0x00,0xC6
105.319060416666673,1743,0x00,0x80
105.319066583333338,1744,0xB0,0xFF
105.319071833333339,1744,0x00,0x1C
105.319218583333338,1745,0x00,0x82
105.319224833333337,1746,0xB0,0xFF
105.319230083333338,1746,0x00,0xF4
105.319376833333337,1747,0x00,0x80
105.319383000000002,1748,0xB0,0xFF
105.319388250000003,1748,0x00,0x02
105.319398916666671,1749,0x92,0x00
105.319412249999999,1750,0xA5,0x00
105.319417416666667,1751,0x91,0x00
105.319539250000005,1752,0x00,0x80
105.319545416666671,1753,0xB0,0xFF
105.319550666666672,1753,0x00,0x2F
105.319710000000001,1754,0x00,0x80
105.319716249999999,1755,0xB0,0xFF
105.319721500000000,1755,0x00,0x18
105.319864166666662,1756,0x00,0x00
105.319870249999994,1757,0xB0,0xFF
105.319875499999995,1757,0x00,0x4A
105.320026499999997,1758,0x00,0x00
105.320032583333330,1759,0xB0,0xFF
105.320037833333330,1759,0x00,0xED
105.320186833333338,1760,0x00,0x80
105.320193083333336,1761,0xB0,0xFF
105.320198333333337,1761,0x00,0xC5
105.320345000000003,1762,0x00,0x80
105.320351166666669,1763,0xB0,0xFF
105.320356416666669,1763,0x00,0xF9
105.320505999999995,1764,0x00,0x80
105.320512249999993,1765,0xB0,0xFF
105.320517499999994,1765,0x00,0x0F
105.320666250000002,1766,0x00,0x80
105.320672416666667,1767,0xB0,0xFF
105.320677666666668,1767,0x00,0x5F
105.320824416666667,1768,0x00,0x80
105.320830666666666,1769,0xB0,0xFF
105.320835916666667,1769,0x00,0x9A
105.320984833333327,1770,0x00,0x80
105.320991083333340,1771,0xB0,0xFF
105.320996333333326,1771,0x00,0xCD
105.321145000000001,1772,0x00,0x80
105.321151166666667,1773,0xB0,0xFF
105.321156416666668,1773,0x00,0x02
105.321307583333336,1774,0x00,0x00
105.321313666666668,1775,0xB0,0xFF
105.321318916666669,1775,0x00,0x57
105.321467833333330,1776,0x00,0x80
105.321473999999995,1777,0xB0,0xFF
105.321479249999996,1777,0x00,0x08
105.321630249999998,1778,0x00,0x80
105.321636499999997,1779,0xB0,0xFF
105.321641749999998,1779,0x00,0xC8
105.321796833333337,1780,0x00,0x80
105.321803083333336,1781,0xB0,0xFF
105.321808333333337,1781,0x00,0x42
105.321818916666672,1782,0x80,0x00
105.321832250000000,1783,0xC2,0x00
105.321837583333334,1784,0x01,0x00
105.321955000000003,1785,0x00,0x80
105.321961250000001,1786,0xB0,0xFF
105.321966500000002,1786,0x00,0xB0
105.322115249999996,1787,0x00,0x80
105.322121416666661,1788,0xB0,0xFF
105.322126666666662,1788,0x00,0x71
105.322281833333335,1789,0x00,0x80
105.322288000000000,1790,0xB0,0xFF
105.322293250000001,1790,0x00,0x0A
105.322442416666661,1791,0x00,0x00
105.322448499999993,1792,0xB0,0xFF
105.322453749999994,1792,0x00,0x51
105.322598249999999,1793,0x00,0x80
105.322604416666664,1794,0xB0,0xFF
105.322609666666665,1794,0x00,0x16
105.322755833333332,1795,0x00,0x80
105.322761999999997,1796,0xB0,0xFF
105.322767333333331,1796,0x00,0x92
105.322916833333338,1797,0x00,0x84
105.322923083333336,1798,0xB0,0xFF
105.322928333333337,1798,0x00,0x34
105.323083583333329,1799,0x00,0x00
105.323089666666661,1800,0xB0,0xFF
105.323094916666662,1800,0x00,0xBD
105.323247833333340,1801,0x00,0x80
105.323254083333339,1802,0xB0,0xFF
105.323259333333340,1802,0x00,0x16
105.323412583333337,1803,0x00,0x00
105.323418666666669,1804,0xB0,0xFF
105.323423916666670,1804,0x00,0x66
105.323572666666664,1805,0x00,0x80
105.323578916666662,1806,0xB0,0xFF
105.323584166666663,1806,0x00,0x22
105.323735083333332,1807,0x00,0x80
105.323741249999998,1808,0xB0,0xFF
105.323746499999999,1808,0x00,0xB9
105.323896833333336,1809,0x00,0x80
105.323903083333335,1810,0xB0,0xFF
105.323908333333335,1810,0x00,0x83
105.324067833333331,1811,0x00,0x00
105.324073916666663,1812,0xB0,0xFF
105.324079166666664,1812,0x00,0x1C
105.324227833333339,1813,0x00,0x84
105.324234083333337,1814,0xB0,0xFF
105.324239333333338,1814,0x00,0x17
105.324249916666673,1815,0x81,0x00
105.324263250000001,1816,0xC2,0x00
105.324268583333335,1817,0x01,0x00
105.324386083333337,1818,0x00,0x80
105.324392250000002,1819,0xB0,0xFF
105.324397500000003,1819,0x00,0x7E
105.324550666666667,1820,0x00,0x8C
105.324556833333332,1821,0xB0,0xFF
105.324562083333333,1821,0x00,0x53
105.324706666666671,1822,0x00,0x82
105.324712916666670,1823,0xB0,0xFF
105.324718166666671,1823,0x00,0x07
105.324864916666670,1824,0x00,0x88
105.324871083333335,1825,0xB0,0xFF
105.324876333333336,1825,0x00,0x69
105.325023916666666,1826,0x00,0x84
105.325030166666664,1827,0xB0,0xFF
105.325035416666665,1827,0x00,0x23
105.325180000000003,1828,0x00,0x00
105.325186083333335,1829,0xB0,0xFF
105.325191333333336,1829,0x00,0xAE
105.325342416666672,1830,0x00,0x00
105.325348500000004,1831,0xB0,0xFF
105.325353750000005,1831,0x00,0x56
105.325504666666660,1832,0x00,0x82
105.325510916666673,1833,0xB0,0xFF
105.325516166666674,1833,0x00,0x7D
105.325662916666673,1834,0x00,0x80
105.325669083333338,1835,0xB0,0xFF
105.325674333333339,1835,0x00,0x0C
105.325829499999998,1836,0x00,0x84
105.325835666666663,1837,0xB0,0xFF
105.325840916666664,1837,0x00,0xED
105.325985833333334,1838,0x00,0x00
105.325991916666666,1839,0xB0,0xFF
105.325997166666667,1839,0x00,0xB3
105.326143916666666,1840,0x00,0x84
105.326150083333332,1841,0xB0,0xFF
105.326155416666666,1841,0x00,0x48
105.326302083333331,1842,0x00,0x84
105.326308249999997,1843,0xB0,0xFF
105.326313499999998,1843,0x00,0x86
105.326462416666672,1844,0x00,0x00
105.326468500000004,1845,0xB0,0xFF
105.326473750000005,1845,0x00,0xE0
105.326622749999999,1846,0x00,0x84
105.326628916666664,1847,0xB0,0xFF
105.326634249999998,1847,0x00,0xE0
105.326644833333333,1848,0x92,0x00
105.326658166666661,1849,0xA5,0x00
105.326663333333329,1850,0x80,0x00
105.326778833333336,1851,0x00,0x00
105.326784916666668,1852,0xB0,0xFF
105.326790166666669,1852,0x00,0x34
105.326945333333327,1853,0x00,0x88
105.326951500000007,1854,0xB0,0xFF
105.326956749999994,1854,0x00,0xDF
105.327107833333329,1855,0x00,0x04
105.327113916666661,1856,0xB0,0xFF
105.327119166666662,1856,0x00,0x5F
105.327268083333337,1857,0x00,0x82
105.327274333333335,1858,0xB0,0xFF
105.327279583333336,1858,0x00,0x7F
105.327428333333330,1859,0x00,0x8C
105.327434499999995,1860,0xB0,0xFF
105.327439749999996,1860,0x00,0xEE
105.327586666666662,1861,0x00,0x00
105.327592749999994,1862,0xB0,0xFF
105.327597999999995,1862,0x00,0x0B
105.327740500000004,1863,0x00,0x84
105.327746666666670,1864,0xB0,0xFF
105.327751916666671,1864,0x00,0x87
105.327909333333338,1865,0x00,0x82
105.327915583333336,1866,0xB0,0xFF
105.327920833333337,1866,0x00,0x52
105.328067583333336,1867,0x00,0x88
105.328073750000001,1868,0xB0,0xFF
105.328079000000002,1868,0x00,0xD6
105.328231333333335,1869,0x00,0x84
105.328237500000000,1870,0xB0,0xFF
105.328242833333334,1870,0x00,0x8B
105.328393750000004,1871,0x00,0x84
105.328399916666669,1872,0xB0,0xFF
105.328405166666670,1872,0x00,0x7C
105.328554083333330,1873,0x00,0x00
105.328560166666662,1874,0xB0,0xFF
105.328565416666663,1874,0x00,0xAD
105.328712166666662,1875,0x00,0x84
105.328718333333327,1876,0xB0,0xFF
105.328723666666662,1876,0x00,0xF3
105.328872583333336,1877,0x00,0x80
105.328878750000001,1878,0xB0,0xFF
105.328884000000002,1878,0x00,0xE1
105.329035000000005,1879,0x00,0x80
105.329041166666670,1880,0xB0,0xFF
105.329046416666671,1880,0x00,0xDB
105.329057083333339,1881,0x93,0x00
105.329070500000000,1882,0x82,0x00
105.329075583333335,1883,0x91,0x00
105.329195166666665,1884,0x00,0x85
105.329201416666663,1885,0xB0,0xFF
105.329206666666664,1885,0x00,0xF9
105.329349166666660,1886,0x00,0x80
105.329355333333339,1887,0xB0,0xFF
105.329360583333340,1887,0x00,0x8F
105.329511666666662,1888,0x00,0x00
105.329517749999994,1889,0xB0,0xFF
105.329522999999995,1889,0x00,0xC9
105.329676166666673,1890,0x00,0x80
105.329682333333338,1891,0xB0,0xFF
105.329687583333339,1891,0x00,0xA7
105.329834333333338,1892,0x00,0x80
105.329840583333336,1893,0xB0,0xFF
105.329845833333337,1893,0x00,0x67
105.329996750000007,1894,0x00,0x80
105.330003000000005,1895,0xB0,0xFF
105.330008250000006,1895,0x00,0xFD
105.330161166666670,1896,0x00,0x80
105.330167333333335,1897,0xB0,0xFF
105.330172583333336,1897,0x00,0xEB
105.330323000000007,1898,0x00,0x80
105.330329250000005,1899,0xB0,0xFF
105.330334500000006,1899,0x00,0xB0
105.330482583333335,1900,0x00,0x84
105.330488833333334,1901,0xB0,0xFF
105.330494083333335,1901,0x00,0x3A
105.330642749999996,1902,0x00,0x80
105.330648916666661,1903,0xB0,0xFF
105.330654166666662,1903,0x00,0x03
105.330803166666669,1904,0x00,0x80
105.330809333333335,1905,0xB0,0xFF
105.330814583333336,1905,0x00,0x76
105.330966166666670,1906,0x00,0x80
105.330972416666668,1907,0xB0,0xFF
105.330977666666669,1907,0x00,0x2B
105.331130833333333,1908,0x00,0x80
105.331136999999998,1909,0xB0,0xFF
105.331142333333332,1909,0x00,0x69
105.331298833333335,1910,0x00,0x80
105.331305000000000,1911,0xB0,0xFF
105.331310250000001,1911,0x00,0x49
105.331450583333336,1912,0x00,0x80
105.331456750000001,1913,0xB0,0xFF
105.331462000000002,1913,0x00,0x19
105.331472666666670,1914,0x92,0x00
105.331485999999998,1915,0xA5,0x00
105.331491166666666,1916,0x90,0x00
105.331613916666669,1917,0x00,0x00
105.331620000000001,1918,0xB0,0xFF
105.331625250000002,1918,0x00,0xBB
105.331773999999996,1919,0x00,0x88
105.331780249999994,1920,0xB0,0xFF
105.331785499999995,1920,0x00,0x25
105.331930333333332,1921,0x00,0x04
105.331936416666665,1922,0xB0,0xFF
105.331941666666665,1922,0x00,0xD9
105.332084916666673,1923,0x00,0x08
105.332091000000005,1924,0xB0,0xFF
105.332096250000006,1924,0x00,0xB7
105.332248000000007,1925,0x00,0x84
105.332254250000005,1926,0xB0,0xFF
105.332259500000006,1926,0x00,0x4D
105.332406250000005,1927,0x00,0x80
105.332412416666671,1928,0xB0,0xFF
105.332417666666672,1928,0x00,0x39
105.332570666666669,1929,0x00,0x80
105.332576833333334,1930,0xB0,0xFF
105.332582083333335,1930,0x00,0xE1
105.332731166666662,1931,0x00,0x00
105.332737249999994,1932,0xB0,0xFF
105.332742499999995,1932,0x00,0xB1
105.332891166666670,1933,0x00,0x84
105.332897416666668,1934,0xB0,0xFF
105.332902666666669,1934,0x00,0xE0
105.333053000000007,1935,0x00,0x82
105.333059250000005,1936,0xB0,0xFF
105.333064500000006,1936,0x00,0x1B
105.333215416666661,1937,0x00,0x80
105.333221666666660,1938,0xB0,0xFF
105.333226916666661,1938,0x00,0x94
105.333369416666670,1939,0x00,0x80
105.333375583333336,1940,0xB0,0xFF
105.333380833333337,1940,0x00,0x1F
105.333527666666669,1941,0x00,0x80
105.333533833333334,1942,0xB0,0xFF
105.333539166666668,1942,0x00,0x32
105.333687833333329,1943,0x00,0x88
105.333693999999994,1944,0xB0,0xFF
105.333699249999995,1944,0x00,0x39
105.333849666666666,1945,0x00,0x80
105.333855833333331,1946,0xB0,0xFF
105.333861083333332,1946,0x00,0x9E
105.333871750000000,1947,0x92,0x00
105.333885083333328,1948,0xA5,0x00
105.333890249999996,1949,0x80,0x00
105.334010750000004,1950,0x00,0x00
105.334016833333337,1951,0xB0,0xFF
105.334022083333338,1951,0x00,0x01
105.334166666666661,1952,0x00,0x80
105.334172833333326,1953,0xB0,0xFF
105.334178083333327,1953,0x00,0xFE
105.334327166666668,1954,0x00,0x00
105.334333250000000,1955,0xB0,0xFF
105.334338500000001,1955,0x00,0xCF
105.334492833333329,1956,0x00,0x80
105.334498999999994,1957,0xB0,0xFF
105.334504249999995,1957,0x00,0xA6
105.334514666666664,1958,0x92,0x00
105.334527416666660,1959,0xC2,0x00
105.334532749999994,1960,0x01,0x00
105.334656166666662,1961,0x00,0x00
105.334662249999994,1962,0xB0,0xFF
105.334667499999995,1962,0x00,0x51
105.334818583333330,1963,0x00,0x04
105.334824666666663,1964,0xB0,0xFF
105.334829916666664,1964,0x00,0x9B
105.334975249999999,1965,0x00,0x88
105.334981416666665,1966,0xB0,0xFF
105.334986666666666,1966,0x00,0x3A
105.335138250000000,1967,0x00,0x80
105.335144499999998,1968,0xB0,0xFF
105.335149749999999,1968,0x00,0x35
105.335300666666669,1969,0x00,0x80
105.335306833333334,1970,0xB0,0xFF
105.335312083333335,1970,0x00,0xF4
105.335461083333328,1971,0x00,0x80
105.335467249999994,1972,0xB0,0xFF
105.335472499999995,1972,0x00,0xB6
105.335617833333330,1973,0x00,0x80
105.335623999999996,1974,0xB0,0xFF
105.335629333333330,1974,0x00,0xAF
105.335778166666671,1975,0x00,0x00
105.335784250000003,1976,0xB0,0xFF
105.335789500000004,1976,0x00,0xE3
105.335940583333340,1977,0x00,0x08
105.335946666666672,1978,0xB0,0xFF
105.335951916666673,1978,0x00,0xFE
105.336102833333328,1979,0x00,0x84
105.336109083333326,1980,0xB0,0xFF
105.336114333333327,1980,0x00,0xBD
105.336261083333326,1981,0x00,0x80
105.336267250000006,1982,0xB0,0xFF
105.336272500000007,1982,0x00,0x7D
105.336419416666672,1983,0x00,0x00
105.336425500000004,1984,0xB0,0xFF
105.336430750000005,1984,0x00,0xFE
105.336577500000004,1985,0x00,0x80
105.336583666666670,1986,0xB0,0xFF
105.336588916666670,1986,0x00,0x61
105.336735666666669,1987,0x00,0x80
105.336741833333335,1988,0xB0,0xFF
105.336747083333336,1988,0x00,0x6C
105.336896083333329,1989,0x00,0x80
105.336902333333327,1990,0xB0,0xFF
105.336907583333328,1990,0x00,0x0A
105.336918166666663,1991,0x81,0x00
105.336931500000006,1992,0xC2,0x00
105.336936833333340,1993,0x01,0x00
105.337052083333333,1994,0x00,0x80
105.337058249999998,1995,0xB0,0xFF
105.337063499999999,1995,0x00,0x14
105.337214500000002,1996,0x00,0x80
105.337220666666667,1997,0xB0,0xFF
105.337225916666668,1997,0x00,0x15
105.337370666666672,1998,0x00,0x80
105.337376916666670,1999,0xB0,0xFF
105.337382166666671,1999,0x00,0x42
105.337528916666670,2000,0x00,0x80
105.337535083333336,2001,0xB0,0xFF
105.337540333333337,2001,0x00,0x17
105.337684916666660,2002,0x00,0x80
105.337691083333340,2003,0xB0,0xFF
105.337696416666660,2003,0x00,0x19
105.337845250000001,2004,0x00,0x80
105.337851499999999,2005,0xB0,0xFF
105.337856750000000,2005,0x00,0xEB
105.337999333333329,2006,0x00,0x84
105.338005583333327,2007,0xB0,0xFF
105.338010833333328,2007,0x00,0xE8
105.338161666666664,2008,0x00,0x80
105.338167916666663,2009,0xB0,0xFF
105.338173166666664,2009,0x00,0x1B
105.338319916666663,2010,0x00,0x80
105.338326083333328,2011,0xB0,0xFF
105.338331333333329,2011,0x00,0x74
105.338480083333337,2012,0x00,0x84
105.338486333333336,2013,0xB0,0xFF
105.338491583333337,2013,0x00,0x40
105.338641166666662,2014,0x00,0x88
105.338647333333327,2015,0xB0,0xFF
105.338652583333328,2015,0x00,0xAE
105.338803499999997,2016,0x00,0x80
105.338809666666663,2017,0xB0,0xFF
105.338814916666664,2017,0x00,0x4E
105.338955499999997,2018,0x00,0x80
105.338961666666663,2019,0xB0,0xFF
105.338966916666664,2019,0x00,0x0D
105.339109500000006,2020,0x00,0x80
105.339115750000005,2021,0xB0,0xFF
105.339121000000006,2021,0x00,0x57
105.339271916666661,2022,0x00,0x88
105.339278166666674,2023,0xB0,0xFF
105.339283416666660,2023,0x00,0xA7
105.339293999999995,2024,0x92,0x00
105.339307333333338,2025,0xA5,0x00
105.339312500000005,2026,0x80,0x00
105.339436333333339,2027,0x00,0x80
105.339442500000004,2028,0xB0,0xFF
105.339447750000005,2028,0x00,0x28
105.339592666666661,2029,0x00,0x00
105.339598749999993,2030,0xB0,0xFF
105.339603999999994,2030,0x00,0x0C
105.339748499999999,2031,0x00,0x80
105.339754666666664,2032,0xB0,0xFF
105.339759999999998,2032,0x00,0x56
105.339919333333327,2033,0x00,0x80
105.339925583333340,2034,0xB0,0xFF
105.339930833333327,2034,0x00,0x36
105.340085333333334,2035,0x00,0x88
105.340091500000000,2036,0xB0,0xFF
105.340096750000001,2036,0x00,0xEC
105.340249166666666,2037,0x00,0x80
105.340255333333332,2038,0xB0,0xFF
105.340260583333333,2038,0x00,0xBB
105.340409333333326,2039,0x00,0x80
105.340415500000006,2040,0xB0,0xFF
105.340420750000007,2040,0x00,0xBC
105.340561333333326,2041,0x00,0x80
105.340567500000006,2042,0xB0,0xFF
105.340572833333340,2042,0x00,0x08
105.340719666666672,2043,0x00,0x00
105.340725750000004,2044,0xB0,0xFF
105.340731000000005,2044,0x00,0xFD
105.340873500000001,2045,0x00,0x80
105.340879666666666,2046,0xB0,0xFF
105.340885000000000,2046,0x00,0xA7
105.341036000000003,2047,0x00,0x88
105.341042166666668,2048,0xB0,0xFF
105.341047416666669,2048,0x00,0x57
105.341198500000004,2049,0x00,0x00
105.341204583333337,2050,0xB0,0xFF
105.341209833333338,2050,0x00,0xC4
105.341362166666670,2051,0x00,0x80
105.341368333333335,2052,0xB0,0xFF
105.341373583333336,2052,0x00,0xD7
105.341520500000001,2053,0x00,0x00
105.341526583333334,2054,0xB0,0xFF
105.341531833333335,2054,0x00,0x0B
105.341691166666664,2055,0x00,0x80
105.341697333333329,2056,0xB0,0xFF
105.341702583333330,2056,0x00,0x72
105.341713249999998,2057,0x92,0x00
105.341726583333340,2058,0xA5,0x00
105.341731749999994,2059,0x91,0x00
105.341849499999995,2060,0x00,0x00
105.341855583333327,2061,0xB0,0xFF
105.341860833333328,2061,0x00,0xA3
105.342005333333333,2062,0x00,0x80
105.342011499999998,2063,0xB0,0xFF
105.342016749999999,2063,0x00,0x72
105.342164333333329,2064,0x00,0x80
105.342170583333328,2065,0xB0,0xFF
105.342175833333329,2065,0x00,0xD3
105.342328749999993,2066,0x00,0x80
105.342335000000006,2067,0xB0,0xFF
105.342340250000007,2067,0x00,0xAC
105.342495416666665,2068,0x00,0x80
105.342501583333330,2069,0xB0,0xFF
105.342506833333331,2069,0x00,0xAD
105.342655750000006,2070,0x00,0x80
105.342662000000004,2071,0xB0,0xFF
105.342667250000005,2071,0x00,0x29
105.342822416666664,2072,0x00,0x80
105.342828583333329,2073,0xB0,0xFF
105.342833833333330,2073,0x00,0xF0
105.342986166666662,2074,0x00,0x80
105.342992416666661,2075,0xB0,0xFF
105.342997666666662,2075,0x00,0xE4
105.343143083333331,2076,0x00,0x00
105.343149166666663,2077,0xB0,0xFF
105.343154416666664,2077,0x00,0xAB
105.343307499999995,2078,0x00,0x00
105.343313583333327,2079,0xB0,0xFF
105.343318833333328,2079,0x00,0x59
105.343472083333339,2080,0x00,0x00
105.343478166666671,2081,0xB0,0xFF
105.343483416666672,2081,0x00,0x11
105.343630166666671,2082,0x00,0x80
105.343636416666669,2083,0xB0,0xFF
105.343641666666670,2083,0x00,0x93
105.343785583333329,2084,0x00,0x80
105.343791749999994,2085,0xB0,0xFF
105.343796999999995,2085,0x00,0x34
105.343944416666673,2086,0x00,0x80
105.343950583333338,2087,0xB0,0xFF
105.343955833333339,2087,0x00,0x37
105.344102750000005,2088,0x00,0x00
105.344108833333337,2089,0xB0,0xFF
105.344114083333338,2089,0x00,0x0D
105.344124833333339,2090,0x01,0x00
105.344138166666667,2091,0x82,0x00
105.344143250000002,2092,0x92,0x00
105.344258749999995,2093,0x00,0x80
105.344264999999993,2094,0xB0,0xFF
105.344270249999994,2094,0x00,0x07
105.344414916666665,2095,0x00,0x00
105.344420999999997,2096,0xB0,0xFF
105.344426249999998,2096,0x00,0x87
105.344577333333334,2097,0x00,0x00
105.344583416666666,2098,0xB0,0xFF
105.344588666666667,2098,0x00,0x8E
105.344741916666663,2099,0x00,0x00
105.344747999999996,2100,0xB0,0xFF
105.344753249999997,2100,0x00,0xBE
105.344897833333334,2101,0x00,0x80
105.344904000000000,2102,0xB0,0xFF
105.344909250000001,2102,0x00,0x4E
105.345062416666664,2103,0x00,0x80
105.345068583333330,2104,0xB0,0xFF
105.345073833333331,2104,0x00,0xB2
105.345225416666665,2105,0x00,0x80
105.345231666666663,2106,0xB0,0xFF
105.345236916666664,2106,0x00,0xAF
105.345387750000000,2107,0x00,0x80
105.345393999999999,2108,0xB0,0xFF
105.345399250000000,2108,0x00,0x06
105.345545999999999,2109,0x00,0x80
105.345552166666664,2110,0xB0,0xFF
105.345557416666665,2110,0x00,0x72
105.345702333333335,2111,0x00,0x00
105.345708416666668,2112,0xB0,0xFF
105.345713666666668,2112,0x00,0x3E
105.345724166666670,2113,0x01,0x00
105.345736916666667,2114,0x82,0x00
105.345742000000001,2115,0x91,0x00
105.345864666666671,2116,0x00,0x80
105.345870833333336,2117,0xB0,0xFF
105.345876166666670,2117,0x00,0xC9
105.346024833333331,2118,0x00,0x80
105.346030999999996,2119,0xB0,0xFF
105.346036249999997,2119,0x00,0xD1
105.346185250000005,2120,0x00,0x80
105.346191416666670,2121,0xB0,0xFF
105.346196666666671,2121,0x00,0x7E
105.346345416666665,2122,0x00,0x80
105.346351666666664,2123,0xB0,0xFF
105.346356916666664,2123,0x00,0xFF
105.346505833333339,2124,0x00,0x80
105.346512083333337,2125,0xB0,0xFF
105.346517333333338,2125,0x00,0x62
105.346666083333332,2126,0x00,0x80
105.346672249999997,2127,0xB0,0xFF
105.346677499999998,2127,0x00,0x30
105.346826583333339,2128,0x00,0x00
105.346832666666671,2129,0xB0,0xFF
105.346837916666672,2129,0x00,0x71
105.346990833333336,2130,0x00,0x84
105.346997083333335,2131,0xB0,0xFF
105.347002333333336,2131,0x00,0x0A
105.347149000000002,2132,0x00,0x80
105.347155250000000,2133,0xB0,0xFF
105.347160500000001,2133,0x00,0x69
105.347305416666671,2134,0x00,0x00
105.347311500000004,2135,0xB0,0xFF
105.347316750000005,2135,0x00,0xB6
105.347469083333337,2136,0x00,0x80
105.347475250000002,2137,0xB0,0xFF
105.347480500000003,2137,0x00,0x30
105.347631500000006,2138,0x00,0x80
105.347637666666671,2139,0xB0,0xFF
105.347642916666672,2139,0x00,0xF5
105.347791749999999,2140,0x00,0x0B
105.347797833333331,2141,0xB0,0xFF
105.347803083333332,2141,0x00,0x36
105.347949916666664,2142,0x00,0x80
105.347956083333330,2143,0xB0,0xFF
105.347961333333330,2143,0x00,0xCE
105.348108166666663,2144,0x00,0x04
105.348114249999995,2145,0xB0,0xFF
105.348119499999996,2145,0x00,0x4E
105.348130249999997,2146,0x01,0x00
105.348143583333339,2147,0x82,0x00
105.348148666666660,2148,0x92,0x00
105.348269916666666,2149,0x00,0x88
105.348276083333332,2150,0xB0,0xFF
105.348281333333333,2150,0x00,0xDE
105.348426666666668,2151,0x00,0x84
105.348432833333334,2152,0xB0,0xFF
105.348438083333335,2152,0x00,0x5B
105.348584083333336,2153,0x00,0x88
105.348590250000001,2154,0xB0,0xFF
105.348595500000002,2154,0x00,0x98
105.348745916666672,2155,0x00,0x80
105.348752083333338,2156,0xB0,0xFF
105.348757333333339,2156,0x00,0xEF
105.348901833333329,2157,0x00,0x82
105.348908083333328,2158,0xB0,0xFF
105.348913333333329,2158,0x00,0x81
105.349060083333327,2159,0x00,0x84
105.349066250000007,2160,0xB0,0xFF
105.349071499999994,2160,0x00,0x8E
105.349220500000001,2161,0x00,0x80
105.349226666666667,2162,0xB0,0xFF
105.349231916666668,2162,0x00,0x2D
105.349380666666661,2163,0x00,0x82
105.349386916666660,2164,0xB0,0xFF
105.349392166666661,2164,0x00,0x63
105.349541083333335,2165,0x00,0x84
105.349547333333334,2166,0xB0,0xFF
105.349552583333335,2166,0x00,0xB1
105.349699333333334,2167,0x00,0x80
105.349705499999999,2168,0xB0,0xFF
105.349710750000000,2168,0x00,0xFC
105.349863833333330,2169,0x00,0x00
105.349869916666663,2170,0xB0,0xFF
105.349875166666664,2170,0x00,0x9F
105.350021833333329,2171,0x00,0x82
105.350028083333328,2172,0xB0,0xFF
105.350033333333329,2172,0x00,0xF8
105.350188500000002,2173,0x00,0x82
105.350194750000000,2174,0xB0,0xFF
105.350200000000001,2174,0x00,0x6C
105.350346666666667,2175,0x00,0x84
105.350352833333332,2176,0xB0,0xFF
105.350358166666666,2176,0x00,0x27
105.350496500000006,2177,0x00,0x84
105.350502666666671,2178,0xB0,0xFF
105.350507916666672,2178,0x00,0x13
105.350518583333340,2179,0x92,0x00
105.350531916666668,2180,0xA5,0x00
105.350537083333336,2181,0x80,0x00
105.350665333333339,2182,0x00,0x82
105.350671583333337,2183,0xB0,0xFF
105.350676833333338,2183,0x00,0xBD
105.350821333333329,2184,0x00,0x80
105.350827499999994,2185,0xB0,0xFF
105.350832749999995,2185,0x00,0x02
105.350981833333336,2186,0x00,0x00
105.350987916666668,2187,0xB0,0xFF
105.350993166666669,2187,0x00,0xF6
105.351141916666663,2188,0x00,0x8C
105.351148166666661,2189,0xB0,0xFF
105.351153416666662,2189,0x00,0x2E
105.351295916666672,2190,0x00,0x80
105.351302166666670,2191,0xB0,0xFF
105.351307416666671,2191,0x00,0x8F
105.351449916666667,2192,0x00,0x80
105.351456083333332,2193,0xB0,0xFF
105.351461333333333,2193,0x00,0x27
105.351610333333326,2194,0x00,0x80
105.351616500000006,2195,0xB0,0xFF
105.351621750000007,2195,0x00,0xE3
105.351770500000001,2196,0x00,0x80
105.351776749999999,2197,0xB0,0xFF
105.351782000000000,2197,0x00,0x45
105.351928749999999,2198,0x00,0x80
105.351934916666664,2199,0xB0,0xFF
105.351940166666665,2199,0x00,0x86
105.352091250000001,2200,0x00,0x00
105.352097333333333,2201,0xB0,0xFF
105.352102583333334,2201,0x00,0xED
105.352251666666660,2202,0x00,0x00
105.352257750000007,2203,0xB0,0xFF
105.352262999999994,2203,0x00,0xC4
105.352413916666663,2204,0x00,0x80
105.352420166666661,2205,0xB0,0xFF
105.352425416666662,2205,0x00,0x55
105.352578333333327,2206,0x00,0x80
105.352584583333339,2207,0xB0,0xFF
105.352589833333340,2207,0x00,0xEA
105.352740749999995,2208,0x00,0x88
105.352746916666661,2209,0xB0,0xFF
105.352752166666662,2209,0x00,0x3E
105.352907333333334,2210,0x00,0x80
105.352913583333333,2211,0xB0,0xFF
105.352918833333334,2211,0x00,0xC8
105.352929416666669,2212,0x81,0x00
105.352981666666665,2213,0xA5,0x00
105.352986833333333,2214,0x80,0x00
105.353069750000003,2215,0x00,0x88
105.353075916666668,2216,0xB0,0xFF
105.353081166666669,2216,0x00,0xB2
105.353228083333335,2217,0x00,0x00
105.353234166666667,2218,0xB0,0xFF
105.353239416666668,2218,0x00,0x00
105.353384166666672,2219,0x00,0x80
105.353390333333337,2220,0xB0,0xFF
105.353395666666671,2220,0x00,0x0E
105.353540249999995,2221,0x00,0x00
105.353546333333327,2222,0xB0,0xFF
105.353551583333328,2222,0x00,0xA0
105.353698333333327,2223,0x00,0x80
105.353704583333339,2224,0xB0,0xFF
105.353709833333340,2224,0x00,0xE5
105.353860749999996,2225,0x00,0x80
105.353866916666661,2226,0xB0,0xFF
105.353872166666662,2226,0x00,0x86
105.354021750000001,2227,0x00,0x80
105.354028000000000,2228,0xB0,0xFF
105.354033250000001,2228,0x00,0xAA
105.354179333333335,2229,0x00,0x80
105.354185583333333,2230,0xB0,0xFF
105.354190833333334,2230,0x00,0xC9
105.354343749999998,2231,0x00,0x84
105.354349999999997,2232,0xB0,0xFF
105.354355249999998,2232,0x00,0x01
105.354497749999993,2233,0x00,0x80
105.354503916666673,2234,0xB0,0xFF
105.354509166666674,2234,0x00,0x39
105.354660166666662,2235,0x00,0x80
105.354666416666660,2236,0xB0,0xFF
105.354671666666661,2236,0x00,0xF7
105.354816333333332,2237,0x00,0x80
105.354822583333330,2238,0xB0,0xFF
105.354827833333331,2238,0x00,0x41
105.354974749999997,2239,0x00,0x08
105.354980833333329,2240,0xB0,0xFF
105.354986083333330,2240,0x00,0xC1
105.355132749999996,2241,0x00,0x80
105.355138999999994,2242,0xB0,0xFF
105.355144249999995,2242,0x00,0x4F
105.355290999999994,2243,0x00,0x88
105.355297166666674,2244,0xB0,0xFF
105.355302416666660,2244,0x00,0x8D
105.355313083333328,2245,0x93,0x00
105.355357416666664,2246,0xA5,0x00
105.355362583333331,2247,0x80,0x00
105.355452583333332,2248,0x00,0x88
105.355458749999997,2249,0xB0,0xFF
105.355463999999998,2249,0x00,0x06
105.355616416666663,2250,0x00,0x80
105.355622583333329,2251,0xB0,0xFF
105.355627833333330,2251,0x00,0xB0
105.355783000000002,2252,0x00,0x80
105.355789250000001,2253,0xB0,0xFF
105.355794500000002,2253,0x00,0xC7
105.355937083333330,2254,0x00,0x04
105.355943166666663,2255,0xB0,0xFF
105.355948416666664,2255,0x00,0x1E
105.356095166666663,2256,0x00,0x80
105.356101416666661,2257,0xB0,0xFF
105.356106666666662,2257,0x00,0x4E
105.356258999999994,2258,0x00,0x80
105.356265250000007,2259,0xB0,0xFF
105.356270499999994,2259,0x00,0x10
105.356413000000003,2260,0x00,0x80
105.356419166666669,2261,0xB0,0xFF
105.356424416666670,2261,0x00,0xE6
105.356569166666674,2262,0x00,0x80
105.356575416666672,2263,0xB0,0xFF
105.356580666666673,2263,0x00,0x3C
105.356729416666667,2264,0x00,0x80
105.356735583333332,2265,0xB0,0xFF
105.356740833333333,2265,0x00,0x60
105.356751250000002,2266,0x92,0x00
105.356768083333336,2267,0xA5,0x00
105.356773250000003,2268,0x91,0x00
105.356893999999997,2269,0x00,0x80
105.356900166666662,2270,0xB0,0xFF
105.356905416666663,2270,0x00,0x16
105.357054333333338,2271,0x00,0x00
105.357060416666670,2272,0xB0,0xFF
105.357065666666671,2272,0x00,0x03
105.357214583333331,2273,0x00,0x80
105.357220833333329,2274,0xB0,0xFF
105.357226083333330,2274,0x00,0x3A
105.357378999999995,2275,0x00,0x80
105.357385249999993,2276,0xB0,0xFF
105.357390499999994,2276,0x00,0x34
105.357537249999993,2277,0x00,0x80
105.357543416666672,2278,0xB0,0xFF
105.357548666666673,2278,0x00,0xB1
105.357695416666672,2279,0x00,0x80
105.357701666666671,2280,0xB0,0xFF
105.357706916666672,2280,0x00,0xDE
105.357855833333332,2281,0x00,0x80
105.357862083333330,2282,0xB0,0xFF
105.357867333333331,2282,0x00,0x90
105.358018166666668,2283,0x00,0x80
105.358024416666666,2284,0xB0,0xFF
105.358029666666667,2284,0x00,0x1B
105.358181333333334,2285,0x00,0x04
105.358187416666667,2286,0xB0,0xFF
105.358192666666667,2286,0x00,0xFA
105.358343750000003,2287,0x00,0x00
105.358349833333335,2288,0xB0,0xFF
105.358355083333336,2288,0x00,0xE7
105.358495666666670,2289,0x00,0x80
105.358501833333335,2290,0xB0,0xFF
105.358507083333336,2290,0x00,0x62
105.358653916666668,2291,0x00,0x00
105.358660000000000,2292,0xB0,0xFF
105.358665250000001,2292,0x00,0x1C
105.358810000000005,2293,0x00,0x00
105.358816083333338,2294,0xB0,0xFF
105.358821333333339,2294,0x00,0xFB
105.358972333333327,2295,0x00,0x00
105.358978416666673,2296,0xB0,0xFF
105.358983666666660,2296,0x00,0x8A
105.359130416666673,2297,0x00,0x80
105.359136666666672,2298,0xB0,0xFF
105.359141916666673,2298,0x00,0xFC
105.359152499999993,2299,0x81,0x00
105.359169916666673,2300,0xA5,0x00
105.359175083333326,2301,0x80,0x00
105.359282416666673,2302,0x00,0x80
105.359288666666671,2303,0xB0,0xFF
105.359293916666672,2303,0x00,0x62
105.359444833333328,2304,0x00,0x80
105.359451083333340,2305,0xB0,0xFF
105.359456333333327,2305,0x00,0xEF
105.359603083333340,2306,0x00,0x80
105.359609250000005,2307,0xB0,0xFF
105.359614500000006,2307,0x00,0xC2
105.359765583333328,2308,0x00,0x00
105.359771666666660,2309,0xB0,0xFF
105.359776916666661,2309,0x00,0x92
105.359924250000006,2310,0x00,0x80
105.359930416666671,2311,0xB0,0xFF
105.359935666666672,2311,0x00,0x17
105.360088833333336,2312,0x00,0x80
105.360095000000001,2313,0xB0,0xFF
105.360100333333335,2313,0x00,0x08
105.360253250000000,2314,0x00,0x80
105.360259416666665,2315,0xB0,0xFF
105.360264666666666,2315,0x00,0x3B
105.360415666666668,2316,0x00,0x80
105.360421833333334,2317,0xB0,0xFF
105.360427083333335,2317,0x00,0x71
105.360569666666663,2318,0x00,0x80
105.360575833333328,2319,0xB0,0xFF
105.360581166666663,2319,0x00,0xD0
105.360734249999993,2320,0x00,0x80
105.360740500000006,2321,0xB0,0xFF
105.360745750000007,2321,0x00,0x4E
105.360891666666660,2322,0x00,0x80
105.360897833333340,2323,0xB0,0xFF
105.360903083333326,2323,0x00,0x6D
105.361046500000000,2324,0x00,0x80
105.361052666666666,2325,0xB0,0xFF
105.361057916666667,2325,0x00,0x76
105.361204666666666,2326,0x00,0x80
105.361210833333331,2327,0xB0,0xFF
105.361216083333332,2327,0x00,0x04
105.361367166666668,2328,0x00,0x00
105.361373250000000,2329,0xB0,0xFF
105.361378500000001,2329,0x00,0x02
105.361521083333329,2330,0x00,0x80
105.361527249999995,2331,0xB0,0xFF
105.361532499999996,2331,0x00,0xE4
105.361543166666664,2332,0x93,0x00
105.361560666666662,2333,0x82,0x00
105.361565749999997,2334,0x93,0x00
105.361681416666670,2335,0x00,0x00
105.361687500000002,2336,0xB0,0xFF
105.361692750000003,2336,0x00,0x24
105.361843666666672,2337,0x00,0x80
105.361849916666671,2338,0xB0,0xFF
105.361855166666672,2338,0x00,0x2C
105.362004083333332,2339,0x00,0x88
105.362010333333330,2340,0xB0,0xFF
105.362015583333331,2340,0x00,0x6F
105.362166500000001,2341,0x00,0x80
105.362172666666666,2342,0xB0,0xFF
105.362177916666667,2342,0x00,0xE1
105.362324833333332,2343,0x00,0x00
105.362330916666664,2344,0xB0,0xFF
105.362336166666665,2344,0x00,0x84
105.362480666666670,2345,0x00,0x80
105.362486833333335,2346,0xB0,0xFF
105.362492083333336,2346,0x00,0x52
105.362641249999996,2347,0x00,0x00
105.362647333333328,2348,0xB0,0xFF
105.362652583333329,2348,0x00,0xA8
105.362798499999997,2349,0x00,0x80
105.362804749999995,2350,0xB0,0xFF
105.362809999999996,2350,0x00,0x26
105.362954666666667,2351,0x00,0x80
105.362960916666665,2352,0xB0,0xFF
105.362966166666666,2352,0x00,0x44
105.363114916666660,2353,0x00,0x80
105.363121083333340,2354,0xB0,0xFF
105.363126333333327,2354,0x00,0x5E
105.363281666666666,2355,0x00,0x00
105.363287749999998,2356,0xB0,0xFF
105.363292999999999,2356,0x00,0x6B
105.363446833333327,2357,0x00,0x00
105.363452916666660,2358,0xB0,0xFF
105.363458166666661,2358,0x00,0x35
105.363613333333333,2359,0x00,0x80
105.363619499999999,2360,0xB0,0xFF
105.363624750000000,2360,0x00,0xAF
105.363769500000004,2361,0x00,0x80
105.363775750000002,2362,0xB0,0xFF
105.363781000000003,2362,0x00,0xA5
105.363929749999997,2363,0x00,0x80
105.363935916666662,2364,0xB0,0xFF
105.363941166666663,2364,0x00,0x1B
105.363951833333331,2365,0x93,0x00
105.363965166666674,2366,0xA5,0x00
105.363974416666665,2367,0x92,0x00
105.364092249999999,2368,0x00,0x00
105.364098333333331,2369,0xB0,0xFF
105.364103583333332,2369,0x00,0x05
105.364254666666668,2370,0x00,0x00
105.364260750000000,2371,0xB0,0xFF
105.364266000000001,2371,0x00,0x1D
105.364414916666661,2372,0x00,0x80
105.364421166666673,2373,0xB0,0xFF
105.364426416666660,2373,0x00,0xD5
105.364579333333339,2374,0x00,0x80
105.364585583333337,2375,0xB0,0xFF
105.364590833333338,2375,0x00,0x6A
105.364738333333335,2376,0x00,0x88
105.364744500000000,2377,0xB0,0xFF
105.364749750000001,2377,0x00,0x44
105.364901333333336,2378,0x00,0x80
105.364907500000001,2379,0xB0,0xFF
105.364912833333335,2379,0x00,0xC5
105.365057666666672,2380,0x00,0x00
105.365063750000004,2381,0xB0,0xFF
105.365069000000005,2381,0x00,0x0E
105.365222083333336,2382,0x00,0x00
105.365228166666668,2383,0xB0,0xFF
105.365233416666669,2383,0x00,0x2D
105.365243916666671,2384,0x01,0x00
105.365256666666667,2385,0x82,0x00
105.365261750000002,2386,0x91,0x00
105.365386666666666,2387,0x00,0x00
105.365392749999998,2388,0xB0,0xFF
105.365397999999999,2388,0x00,0x66
105.365549083333335,2389,0x00,0x00
105.365555166666667,2390,0xB0,0xFF
105.365560416666668,2390,0x00,0x38
105.365709166666662,2391,0x00,0x80
105.365715333333327,2392,0xB0,0xFF
105.365720583333328,2392,0x00,0xD2
105.365869583333335,2393,0x00,0x80
105.365875750000001,2394,0xB0,0xFF
105.365881000000002,2394,0x00,0x01
105.366025500000006,2395,0x00,0x80
105.366031750000005,2396,0xB0,0xFF
105.366037000000006,2396,0x00,0x00
105.366185999999999,2397,0x00,0x80
105.366192166666664,2398,0xB0,0xFF
105.366197416666665,2398,0x00,0x1B
105.366350333333330,2399,0x00,0x80
105.366356499999995,2400,0xB0,0xFF
105.366361749999996,2400,0x00,0xDC
105.366510750000003,2401,0x00,0x80
105.366516916666669,2402,0xB0,0xFF
105.366522166666670,2402,0x00,0xFC
105.366666749999993,2403,0x00,0x80
105.366673000000006,2404,0xB0,0xFF
105.366678250000007,2404,0x00,0x04
105.366825000000006,2405,0x00,0x88
105.366831166666671,2406,0xB0,0xFF
105.366836416666672,2406,0x00,0x71
105.366985499999998,2407,0x00,0x04
105.366991583333331,2408,0xB0,0xFF
105.366996833333332,2408,0x00,0x87
105.367147083333336,2409,0x00,0x04
105.367153166666668,2410,0xB0,0xFF
105.367158416666669,2410,0x00,0xA0
105.367309500000005,2411,0x00,0x04
105.367315583333337,2412,0xB0,0xFF
105.367320833333338,2412,0x00,0x46
105.367471333333327,2413,0x00,0x04
105.367477416666674,2414,0xB0,0xFF
105.367482666666660,2414,0x00,0x4D
105.367630000000005,2415,0x00,0x88
105.367636166666671,2416,0xB0,0xFF
105.367641416666672,2416,0x00,0x06
105.367652083333340,2417,0x93,0x00
105.367665416666668,2418,0xA5,0x00
105.367670583333336,2419,0x91,0x00
105.367792416666660,2420,0x00,0x80
105.367798583333339,2421,0xB0,0xFF
105.367803833333340,2421,0x00,0x72
105.367954916666662,2422,0x00,0x00
105.367960999999994,2423,0xB0,0xFF
105.367966249999995,2423,0x00,0x8F
105.368117166666664,2424,0x00,0x80
105.368123416666663,2425,0xB0,0xFF
105.368128666666664,2425,0x00,0xA3
105.368275416666663,2426,0x00,0x80
105.368281583333328,2427,0xB0,0xFF
105.368286833333329,2427,0x00,0x4E
105.368429500000005,2428,0x00,0x00
105.368435583333337,2429,0xB0,0xFF
105.368440833333338,2429,0x00,0xC7
105.368594083333335,2430,0x00,0x00
105.368600166666667,2431,0xB0,0xFF
105.368605416666668,2431,0x00,0xA2
105.368754249999995,2432,0x00,0x80
105.368760416666660,2433,0xB0,0xFF
105.368765666666661,2433,0x00,0x4B
105.368912416666660,2434,0x00,0x80
105.368918583333340,2435,0xB0,0xFF
105.368923833333326,2435,0x00,0xAF
105.369072916666667,2436,0x00,0x00
105.369078999999999,2437,0xB0,0xFF
105.369084250000000,2437,0x00,0xC7
105.369237166666665,2438,0x00,0x80
105.369243416666663,2439,0xB0,0xFF
105.369248666666664,2439,0x00,0x83
105.369395416666663,2440,0x00,0x80
105.369401583333328,2441,0xB0,0xFF
105.369406833333329,2441,0x00,0x9B
105.369562000000002,2442,0x00,0x80
105.369568166666667,2443,0xB0,0xFF
105.369573500000001,2443,0x00,0x3B
105.369718333333338,2444,0x00,0x00
105.369724416666671,2445,0xB0,0xFF
105.369729666666672,2445,0x00,0x56
105.369878416666666,2446,0x00,0x80
105.369884666666664,2447,0xB0,0xFF
105.369889916666665,2447,0x00,0x2B
105.370045000000005,2448,0x00,0x80
105.370051250000003,2449,0xB0,0xFF
105.370056500000004,2449,0x00,0x8E
105.370067083333339,2450,0x81,0x00
105.370080416666667,2451,0xC2,0x00
105.370085750000001,2452,0x01,0x00
105.370207416666673,2453,0x00,0x80
105.370213666666672,2454,0xB0,0xFF
105.370218916666673,2454,0x00,0x3F
105.370363666666663,2455,0x00,0x80
105.370369833333328,2456,0xB0,0xFF
105.370375083333329,2456,0x00,0x02
105.370523833333337,2457,0x00,0x84
105.370530083333335,2458,0xB0,0xFF
105.370535333333336,2458,0x00,0xC2
105.370684166666663,2459,0x00,0x84
105.370690416666662,2460,0xB0,0xFF
105.370695666666663,2460,0x00,0x2B
105.370844583333337,2461,0x00,0x00
105.370850666666669,2462,0xB0,0xFF
105.370855916666670,2462,0x00,0xA3
105.371004833333330,2463,0x00,0x80
105.371010999999996,2464,0xB0,0xFF
105.371016249999997,2464,0x00,0x02
105.371160833333334,2465,0x00,0x80
105.371167000000000,2466,0xB0,0xFF
105.371172250000001,2466,0x00,0x2E
105.371329666666668,2467,0x00,0x80
105.371335916666666,2468,0xB0,0xFF
105.371341166666667,2468,0x00,0xA0
105.371487833333333,2469,0x00,0x80
105.371493999999998,2470,0xB0,0xFF
105.371499249999999,2470,0x00,0x00
105.371643833333337,2471,0x00,0x80
105.371650083333336,2472,0xB0,0xFF
105.371655333333337,2472,0x00,0x77
105.371801416666671,2473,0x00,0x84
105.371807666666669,2474,0xB0,0xFF
105.371812916666670,2474,0x00,0x46
105.371965833333334,2475,0x00,0x80
105.371972083333333,2476,0xB0,0xFF
105.371977333333334,2476,0x00,0xAD
105.372126249999994,2477,0x00,0x88
105.372132416666673,2478,0xB0,0xFF
105.372137666666660,2478,0x00,0x78
110.578487416666661,2479,0x00,0x40
110.578492666666662,2480,0x93,0x00
110.578497916666663,2481,0xE0,0x00
110.578503666666663,2482,0x8B,0x00
110.578508916666664,2483,0xD0,0x00
110.578514249999998,2484,0x92,0x00
110.578519499999999,2485,0x80,0x00
110.578524750000000,2486,0x92,0x00
110.578530250000000,2487,0xB9,0x00
110.578535750000000,2488,0xA1,0x00
110.578541000000001,2489,0x89,0x00
110.578546750000001,2490,0x46,0x00
110.578551916666669,2491,0xAF,0x00
110.578557166666670,2492,0xC0,0x00
110.578562416666671,2493,0xA0,0x00
110.578567666666672,2494,0x89,0x00
110.578576833333329,2495,0xCF,0x00
110.578582666666662,,0x82,0x00
